(1620100659.576117) can0 1E0012D0#3D750CD300052C34
(1620100659.576184) can0 1E0052D0#000002C000000F9A
(1620100659.576201) can0 1E0092D0#00000000000004E0
(1620100659.576216) can0 1E00D2D0#00000AAC00000000
(1620100659.576231) can0 1E0112D0#00000E0A00000AAC
(1620100659.576245) can0 1E0152D0#000019BF00000AAC
(1620100659.574597) can0 1E0192D0#000020C000000000
(1620100659.574693) can0 1E01D2D0#00005E9600000000
(1620100659.574879) can0 1E0212D0#0000568E0000584E
(1620100659.574974) can0 1E0252D0#FFFFF3BB00000DC0
(1620100659.575161) can0 1E0292D0#0000000000002A06
(1620100659.575256) can0 1E02D2D0#0000000000000000
(1620100659.575439) can0 1E0312D0#0000000000000000
(1620100659.575584) can0 1E0352D0#0000000000000000
(1620100659.575731) can0 1E0392D0#0000000000000000
(1620100659.575877) can0 1E03D2D0#0000000000000000
(1620100659.576022) can0 1E0412D0#0000000000000000
(1620100659.576168) can0 1E0452D0#0000000000000000
(1620100659.576317) can0 1E0492D0#0000000000000000
(1620100659.576464) can0 1E04D2D0#0000000000000000
(1620100659.576611) can0 1E0512D0#0000000000000000
(1620100659.576761) can0 1E0552D0#0000000000000000
(1620100659.576909) can0 1E0592D0#0000000000000000
(1620100659.577056) can0 1E05D2D0#0000000000000000
(1620100659.577204) can0 1E0612D0#0000000000000000
(1620100659.577302) can0 1FF412D0#1100EEFF0001DC1E
(1620100659.577492) can0 1FF452D0#00024ECC00000000
(1620100659.583706) can0 1E0012D0#3D750CDD00052B82
(1620100659.583824) can0 1E0052D0#000002C200000FA2
(1620100659.583991) can0 1E0092D0#00000000000004E2
(1620100659.584138) can0 1E00D2D0#00000AC600000000
(1620100659.584237) can0 1E0112D0#00000E0A00000AC6
(1620100659.584417) can0 1E0152D0#000019AC00000AC6
(1620100659.584564) can0 1E0192D0#000020D100000000
(1620100659.584711) can0 1E01D2D0#00005E9200000000
(1620100659.584809) can0 1E0212D0#0000568E00005858
(1620100659.584990) can0 1E0252D0#FFFFF3B900000DC0
(1620100659.585137) can0 1E0292D0#0000000000002A04
(1620100659.585284) can0 1E02D2D0#0000000000000000
(1620100659.585431) can0 1E0312D0#0000000000000000
(1620100659.585578) can0 1E0352D0#0000000000000000
(1620100659.585726) can0 1E0392D0#0000000000000000
(1620100659.585873) can0 1E03D2D0#0000000000000000
(1620100659.586019) can0 1E0412D0#0000000000000000
(1620100659.586166) can0 1E0452D0#0000000000000000
(1620100659.586314) can0 1E0492D0#0000000000000000
(1620100659.586461) can0 1E04D2D0#0000000000000000
(1620100659.586608) can0 1E0512D0#0000000000000000
(1620100659.586755) can0 1E0552D0#0000000000000000
(1620100659.586901) can0 1E0592D0#0000000000000000
(1620100659.587048) can0 1E05D2D0#0000000000000000
(1620100659.587194) can0 1E0612D0#0000000000000000
(1620100659.587341) can0 1FF412D0#1100EEFF0001DC1F
(1620100659.587487) can0 1FF452D0#00024ECD00000000
(1620100659.593701) can0 1E0012D0#3D750CE700052C9B
(1620100659.593882) can0 1E0052D0#000002BA00000F6D
(1620100659.593981) can0 1E0092D0#00000000000004D2
(1620100659.594128) can0 1E00D2D0#00000AB900000000
(1620100659.594274) can0 1E0112D0#00000E0A00000AB9
(1620100659.594421) can0 1E0152D0#00001A0400000AB9
(1620100659.594568) can0 1E0192D0#0000207F00000000
(1620100659.594716) can0 1E01D2D0#00005E9900000000
(1620100659.594814) can0 1E0212D0#0000568F00005859
(1620100659.594992) can0 1E0252D0#FFFFF3B600000DC1
(1620100659.595139) can0 1E0292D0#0000000000002A04
(1620100659.595285) can0 1E02D2D0#0000000000000000
(1620100659.595431) can0 1E0312D0#0000000000000000
(1620100659.595578) can0 1E0352D0#0000000000000000
(1620100659.595724) can0 1E0392D0#0000000000000000
(1620100659.595871) can0 1E03D2D0#0000000000000000
(1620100659.596017) can0 1E0412D0#0000000000000000
(1620100659.596164) can0 1E0452D0#0000000000000000
(1620100659.596312) can0 1E0492D0#0000000000000000
(1620100659.596458) can0 1E04D2D0#0000000000000000
(1620100659.596605) can0 1E0512D0#0000000000000000
(1620100659.596751) can0 1E0552D0#0000000000000000
(1620100659.596897) can0 1E0592D0#0000000000000000
(1620100659.597044) can0 1E05D2D0#0000000000000000
(1620100659.597191) can0 1E0612D0#0000000000000000
(1620100659.597337) can0 1FF412D0#1100EEFF0001DC1F
(1620100659.597484) can0 1FF452D0#00024ECD00000000
(1620100659.603702) can0 1E0012D0#3D750CF100052C9B
(1620100659.603861) can0 1E0052D0#000002BB00000F76
(1620100659.603959) can0 1E0092D0#00000000000004D5
(1620100659.604131) can0 1E00D2D0#00000ABC00000000
(1620100659.604278) can0 1E0112D0#00000E0A00000ABC
(1620100659.604424) can0 1E0152D0#000019F600000ABC
(1620100659.604571) can0 1E0192D0#0000208C00000000
(1620100659.604717) can0 1E01D2D0#00005E9A00000000
(1620100659.604815) can0 1E0212D0#0000568F00005857
(1620100659.604993) can0 1E0252D0#FFFFF3B500000DC1
(1620100659.605139) can0 1E0292D0#0000000000002A02
(1620100659.605285) can0 1E02D2D0#0000000000000000
(1620100659.605432) can0 1E0312D0#0000000000000000
(1620100659.605579) can0 1E0352D0#0000000000000000
(1620100659.605726) can0 1E0392D0#0000000000000000
(1620100659.605872) can0 1E03D2D0#0000000000000000
(1620100659.606018) can0 1E0412D0#0000000000000000
(1620100659.606164) can0 1E0452D0#0000000000000000
(1620100659.606312) can0 1E0492D0#0000000000000000
(1620100659.606459) can0 1E04D2D0#0000000000000000
(1620100659.606608) can0 1E0512D0#0000000000000000
(1620100659.606754) can0 1E0552D0#0000000000000000
(1620100659.606900) can0 1E0592D0#0000000000000000
(1620100659.607047) can0 1E05D2D0#0000000000000000
(1620100659.607193) can0 1E0612D0#0000000000000000
(1620100659.607339) can0 1FF412D0#1100EEFF0001DC1F
(1620100659.607485) can0 1FF452D0#00024ECD00000000
(1620100659.613703) can0 1E0012D0#3D750CFB00052BB1
(1620100659.613871) can0 1E0052D0#000002BB00000F6D
(1620100659.613970) can0 1E0092D0#00000000000004D2
(1620100659.614134) can0 1E00D2D0#00000ABB00000000
(1620100659.614281) can0 1E0112D0#00000E0A00000ABB
(1620100659.614428) can0 1E0152D0#000019FB00000ABB
(1620100659.614574) can0 1E0192D0#0000208600000000
(1620100659.614672) can0 1E01D2D0#00005E9B00000000
(1620100659.614850) can0 1E0212D0#0000568F00005858
(1620100659.614999) can0 1E0252D0#FFFFF3B400000DBB
(1620100659.615145) can0 1E0292D0#0000000000002A01
(1620100659.615292) can0 1E02D2D0#0000000000000000
(1620100659.615438) can0 1E0312D0#0000000000000000
(1620100659.615586) can0 1E0352D0#0000000000000000
(1620100659.615733) can0 1E0392D0#0000000000000000
(1620100659.615879) can0 1E03D2D0#0000000000000000
(1620100659.616026) can0 1E0412D0#0000000000000000
(1620100659.616172) can0 1E0452D0#0000000000000000
(1620100659.616320) can0 1E0492D0#0000000000000000
(1620100659.616466) can0 1E04D2D0#0000000000000000
(1620100659.616613) can0 1E0512D0#0000000000000000
(1620100659.616759) can0 1E0552D0#0000000000000000
(1620100659.616905) can0 1E0592D0#0000000000000000
(1620100659.617052) can0 1E05D2D0#0000000000000000
(1620100659.617198) can0 1E0612D0#0000000000000000
(1620100659.617345) can0 1FF412D0#1100EEFF0001DC1F
(1620100659.617492) can0 1FF452D0#00024ECD00000000
(1620100659.623702) can0 1E0012D0#3D750D0500052F44
(1620100659.623893) can0 1E0052D0#000002BE00000F8E
(1620100659.623991) can0 1E0092D0#00000000000004DC
(1620100659.624138) can0 1E00D2D0#00000AB900000000
(1620100659.624285) can0 1E0112D0#00000E0A00000AB9
(1620100659.624382) can0 1E0152D0#000019EA00000AB9
(1620100659.624566) can0 1E0192D0#0000209C00000000
(1620100659.624714) can0 1E01D2D0#00005E9200000000
(1620100659.624812) can0 1E0212D0#0000568F00005865
(1620100659.625002) can0 1E0252D0#FFFFF3B600000DBB
(1620100659.625100) can0 1E0292D0#0000000000002A02
(1620100659.625312) can0 1E02D2D0#0000000000000000
(1620100659.625411) can0 1E0312D0#0000000000000000
(1620100659.627928) can0 1E0352D0#0000000000000000
(1620100659.627987) can0 1E0392D0#0000000000000000
(1620100659.628145) can0 1FF452D0#00024ECD00000000
(1620100659.633693) can0 1E0012D0#3D750D0F0005324B
(1620100659.633827) can0 1E0052D0#000002C000000FA4
(1620100659.633983) can0 1E0092D0#00000000000004E3
(1620100659.634119) can0 1E00D2D0#00000ABC00000000
(1620100659.634268) can0 1E0112D0#00000E0A00000ABC
(1620100659.634414) can0 1E0152D0#000019E500000ABC
(1620100659.634550) can0 1E0192D0#000020A400000000
(1620100659.634698) can0 1E01D2D0#00005E9700000000
(1620100659.634845) can0 1E0212D0#0000569000005865
(1620100659.634978) can0 1E0252D0#FFFFF3B900000DB9
(1620100659.635127) can0 1E0292D0#00000000000029FE
(1620100659.635275) can0 1E02D2D0#0000000000000000
(1620100659.635421) can0 1E0312D0#0000000000000000
(1620100659.635567) can0 1E0352D0#0000000000000000
(1620100659.635715) can0 1E0392D0#0000000000000000
(1620100659.635863) can0 1E03D2D0#0000000000000000
(1620100659.636011) can0 1E0412D0#0000000000000000
(1620100659.636158) can0 1E0452D0#0000000000000000
(1620100659.636305) can0 1E0492D0#0000000000000000
(1620100659.636452) can0 1E04D2D0#0000000000000000
(1620100659.636600) can0 1E0512D0#0000000000000000
(1620100659.636747) can0 1E0552D0#0000000000000000
(1620100659.636894) can0 1E0592D0#0000000000000000
(1620100659.637041) can0 1E05D2D0#0000000000000000
(1620100659.637187) can0 1E0612D0#0000000000000000
(1620100659.637333) can0 1FF412D0#1100EEFF0001DC1F
(1620100659.637469) can0 1FF452D0#00024ECD00000000
(1620100659.643691) can0 1E0012D0#3D750D1900053628
(1620100659.643836) can0 1E0052D0#000002BE00000FA4
(1620100659.643985) can0 1E0092D0#00000000000004E3
(1620100659.644119) can0 1E00D2D0#00000ABC00000000
(1620100659.644267) can0 1E0112D0#00000E0A00000ABC
(1620100659.644414) can0 1E0152D0#00001A0A00000ABC
(1620100659.644549) can0 1E0192D0#0000208700000000
(1620100659.644698) can0 1E01D2D0#00005E9400000000
(1620100659.644834) can0 1E0212D0#0000569000005862
(1620100659.644980) can0 1E0252D0#FFFFF3BA00000DB9
(1620100659.645127) can0 1E0292D0#00000000000029F7
(1620100659.645274) can0 1E02D2D0#0000000000000000
(1620100659.645421) can0 1E0312D0#0000000000000000
(1620100659.645567) can0 1E0352D0#0000000000000000
(1620100659.645714) can0 1E0392D0#0000000000000000
(1620100659.645861) can0 1E03D2D0#0000000000000000
(1620100659.646009) can0 1E0412D0#0000000000000000
(1620100659.646157) can0 1E0452D0#0000000000000000
(1620100659.646304) can0 1E0492D0#0000000000000000
(1620100659.646451) can0 1E04D2D0#0000000000000000
(1620100659.646599) can0 1E0512D0#0000000000000000
(1620100659.646745) can0 1E0552D0#0000000000000000
(1620100659.646893) can0 1E0592D0#0000000000000000
(1620100659.647041) can0 1E05D2D0#0000000000000000
(1620100659.647186) can0 1E0612D0#0000000000000000
(1620100659.647332) can0 1FF412D0#1100EEFF0001DC1F
(1620100659.647468) can0 1FF452D0#00024ECD00000000
(1620100659.653691) can0 1E0012D0#3D750D23000538D5
(1620100659.653838) can0 1E0052D0#000002C300000FCF
(1620100659.653986) can0 1E0092D0#00000000000004F0
(1620100659.654119) can0 1E00D2D0#00000ACA00000000
(1620100659.654269) can0 1E0112D0#00000E0B00000ACA
(1620100659.654405) can0 1E0152D0#000019E300000ACA
(1620100659.654555) can0 1E0192D0#000020B100000000
(1620100659.654701) can0 1E01D2D0#00005E9A00000000
(1620100659.654834) can0 1E0212D0#0000569100005861
(1620100659.654981) can0 1E0252D0#FFFFF3BA00000DBE
(1620100659.655127) can0 1E0292D0#00000000000029FA
(1620100659.655288) can0 1E02D2D0#0000000000000000
(1620100659.655420) can0 1E0312D0#0000000000000000
(1620100659.655567) can0 1E0352D0#0000000000000000
(1620100659.655715) can0 1E0392D0#0000000000000000
(1620100659.655862) can0 1E03D2D0#0000000000000000
(1620100659.656010) can0 1E0412D0#0000000000000000
(1620100659.656157) can0 1E0452D0#0000000000000000
(1620100659.656304) can0 1E0492D0#0000000000000000
(1620100659.656452) can0 1E04D2D0#0000000000000000
(1620100659.656599) can0 1E0512D0#0000000000000000
(1620100659.656746) can0 1E0552D0#0000000000000000
(1620100659.656893) can0 1E0592D0#0000000000000000
(1620100659.657039) can0 1E05D2D0#0000000000000000
(1620100659.657187) can0 1E0612D0#0000000000000000
(1620100659.657332) can0 1FF412D0#1100EEFF0001DC1F
(1620100659.657468) can0 1FF452D0#00024ECD00000000
(1620100659.663691) can0 1E0012D0#3D750D2D00053A55
(1620100659.663837) can0 1E0052D0#000002BF00000FB8
(1620100659.663985) can0 1E0092D0#00000000000004E9
(1620100659.664118) can0 1E00D2D0#00000AB100000000
(1620100659.664267) can0 1E0112D0#00000E0A00000AB1
(1620100659.664403) can0 1E0152D0#00001A1200000AB1
(1620100659.664554) can0 1E0192D0#0000208600000000
(1620100659.664700) can0 1E01D2D0#00005E9600000000
(1620100659.664833) can0 1E0212D0#000056910000585E
(1620100659.664982) can0 1E0252D0#FFFFF3B900000DBE
(1620100659.665128) can0 1E0292D0#00000000000029FB
(1620100659.665276) can0 1E02D2D0#0000000000000000
(1620100659.665422) can0 1E0312D0#0000000000000000
(1620100659.665568) can0 1E0352D0#0000000000000000
(1620100659.665715) can0 1E0392D0#0000000000000000
(1620100659.665862) can0 1E03D2D0#0000000000000000
(1620100659.666010) can0 1E0412D0#0000000000000000
(1620100659.666157) can0 1E0452D0#0000000000000000
(1620100659.666305) can0 1E0492D0#0000000000000000
(1620100659.666452) can0 1E04D2D0#0000000000000000
(1620100659.666600) can0 1E0512D0#0000000000000000
(1620100659.666746) can0 1E0552D0#0000000000000000
(1620100659.666894) can0 1E0592D0#0000000000000000
(1620100659.667040) can0 1E05D2D0#0000000000000000
(1620100659.667187) can0 1E0612D0#0000000000000000
(1620100659.667333) can0 1FF412D0#1100EEFF0001DC1F
(1620100659.667469) can0 1FF452D0#00024ECD00000000
(1620100659.673692) can0 1E0012D0#3D750D37000537F3
(1620100659.673827) can0 1E0052D0#000002C000000FBE
(1620100659.673984) can0 1E0092D0#00000000000004EB
(1620100659.674130) can0 1E00D2D0#00000AC900000000
(1620100659.674263) can0 1E0112D0#00000E0A00000AC9
(1620100659.674411) can0 1E0152D0#000019F300000AC9
(1620100659.674557) can0 1E0192D0#000020A000000000
(1620100659.674704) can0 1E01D2D0#00005E9800000000
(1620100659.674836) can0 1E0212D0#000056900000585E
(1620100659.674984) can0 1E0252D0#FFFFF3BA00000DC1
(1620100659.675130) can0 1E0292D0#00000000000029FC
(1620100659.675278) can0 1E02D2D0#0000000000000000
(1620100659.675424) can0 1E0312D0#0000000000000000
(1620100659.675570) can0 1E0352D0#0000000000000000
(1620100659.675717) can0 1E0392D0#0000000000000000
(1620100659.675864) can0 1E03D2D0#0000000000000000
(1620100659.676012) can0 1E0412D0#0000000000000000
(1620100659.676160) can0 1E0452D0#0000000000000000
(1620100659.676307) can0 1E0492D0#0000000000000000
(1620100659.676455) can0 1E04D2D0#0000000000000000
(1620100659.676602) can0 1E0512D0#0000000000000000
(1620100659.676749) can0 1E0552D0#0000000000000000
(1620100659.676897) can0 1E0592D0#0000000000000000
(1620100659.677043) can0 1E05D2D0#0000000000000000
(1620100659.677190) can0 1E0612D0#0000000000000000
(1620100659.677336) can0 1FF412D0#1100EEFF0001DC1F
(1620100659.677471) can0 1FF452D0#00024ECD00000000
(1620100659.683693) can0 1E0012D0#3D750D4100053857
(1620100659.683850) can0 1E0052D0#000002B700000F7F
(1620100659.683986) can0 1E0092D0#00000000000004D7
(1620100659.684121) can0 1E00D2D0#00000AB900000000
(1620100659.684268) can0 1E0112D0#00000E0A00000AB9
(1620100659.684415) can0 1E0152D0#00001A5400000AB9
(1620100659.684551) can0 1E0192D0#0000204400000000
(1620100659.684701) can0 1E01D2D0#00005E9300000000
(1620100659.684837) can0 1E0212D0#000056900000585C
(1620100659.684986) can0 1E0252D0#FFFFF3B700000DC1
(1620100659.685132) can0 1E0292D0#00000000000029FD
(1620100659.685281) can0 1E02D2D0#0000000000000000
(1620100659.685427) can0 1E0312D0#0000000000000000
(1620100659.685574) can0 1E0352D0#0000000000000000
(1620100659.685720) can0 1E0392D0#0000000000000000
(1620100659.685868) can0 1E03D2D0#0000000000000000
(1620100659.686015) can0 1E0412D0#0000000000000000
(1620100659.686163) can0 1E0452D0#0000000000000000
(1620100659.686310) can0 1E0492D0#0000000000000000
(1620100659.686457) can0 1E04D2D0#0000000000000000
(1620100659.686605) can0 1E0512D0#0000000000000000
(1620100659.686752) can0 1E0552D0#0000000000000000
(1620100659.686899) can0 1E0592D0#0000000000000000
(1620100659.687045) can0 1E05D2D0#0000000000000000
(1620100659.687192) can0 1E0612D0#0000000000000000
(1620100659.687339) can0 1FF412D0#1100EEFF0001DC1F
(1620100659.687472) can0 1FF452D0#00024ECD00000000
(1620100659.693690) can0 1E0012D0#3D750D4B00053857
(1620100659.693838) can0 1E0052D0#000002B900000F8D
(1620100659.693973) can0 1E0092D0#00000000000004DC
(1620100659.694122) can0 1E00D2D0#00000ABC00000000
(1620100659.694268) can0 1E0112D0#00000E0A00000ABC
(1620100659.694403) can0 1E0152D0#00001A3E00000ABC
(1620100659.694552) can0 1E0192D0#0000205900000000
(1620100659.694700) can0 1E01D2D0#00005E9400000000
(1620100659.694834) can0 1E0212D0#000056900000585C
(1620100659.694980) can0 1E0252D0#FFFFF3B500000DC1
(1620100659.695127) can0 1E0292D0#00000000000029FB
(1620100659.695275) can0 1E02D2D0#0000000000000000
(1620100659.695421) can0 1E0312D0#0000000000000000
(1620100659.695568) can0 1E0352D0#0000000000000000
(1620100659.695715) can0 1E0392D0#0000000000000000
(1620100659.695861) can0 1E03D2D0#0000000000000000
(1620100659.696008) can0 1E0412D0#0000000000000000
(1620100659.696155) can0 1E0452D0#0000000000000000
(1620100659.696302) can0 1E0492D0#0000000000000000
(1620100659.696450) can0 1E04D2D0#0000000000000000
(1620100659.696598) can0 1E0512D0#0000000000000000
(1620100659.696745) can0 1E0552D0#0000000000000000
(1620100659.696891) can0 1E0592D0#0000000000000000
(1620100659.697038) can0 1E05D2D0#0000000000000000
(1620100659.697185) can0 1E0612D0#0000000000000000
(1620100659.697331) can0 1FF412D0#1100EEFF0001DC1F
(1620100659.697466) can0 1FF452D0#00024ECD00000000
(1620100659.703689) can0 1E0012D0#3D750D55000535E1
(1620100659.703836) can0 1E0052D0#000002B700000F78
(1620100659.703984) can0 1E0092D0#00000000000004D5
(1620100659.704117) can0 1E00D2D0#00000ABB00000000
(1620100659.704264) can0 1E0112D0#00000E0A00000ABB
(1620100659.704411) can0 1E0152D0#00001A4700000ABB
(1620100659.704546) can0 1E0192D0#0000204D00000000
(1620100659.704695) can0 1E01D2D0#00005E9000000000
(1620100659.704830) can0 1E0212D0#000056900000585A
(1620100659.704979) can0 1E0252D0#FFFFF3B600000DC1
(1620100659.705125) can0 1E0292D0#00000000000029FF
(1620100659.705273) can0 1E02D2D0#0000000000000000
(1620100659.705420) can0 1E0312D0#0000000000000000
(1620100659.705567) can0 1E0352D0#0000000000000000
(1620100659.705714) can0 1E0392D0#0000000000000000
(1620100659.705860) can0 1E03D2D0#0000000000000000
(1620100659.706008) can0 1E0412D0#0000000000000000
(1620100659.706156) can0 1E0452D0#0000000000000000
(1620100659.706303) can0 1E0492D0#0000000000000000
(1620100659.706450) can0 1E04D2D0#0000000000000000
(1620100659.706598) can0 1E0512D0#0000000000000000
(1620100659.706746) can0 1E0552D0#0000000000000000
(1620100659.706893) can0 1E0592D0#0000000000000000
(1620100659.707040) can0 1E05D2D0#0000000000000000
(1620100659.707186) can0 1E0612D0#0000000000000000
(1620100659.707333) can0 1FF412D0#1100EEFF0001DC1F
(1620100659.707466) can0 1FF452D0#00024ECD00000000
(1620100659.713691) can0 1E0012D0#3D750D5F00053842
(1620100659.713835) can0 1E0052D0#000002BB00000F97
(1620100659.713984) can0 1E0092D0#00000000000004DF
(1620100659.714130) can0 1E00D2D0#00000AB800000000
(1620100659.714263) can0 1E0112D0#00000E0A00000AB8
(1620100659.714411) can0 1E0152D0#00001A2E00000AB8
(1620100659.714558) can0 1E0192D0#0000206800000000
(1620100659.714705) can0 1E01D2D0#00005E9B00000000
(1620100659.714837) can0 1E0212D0#0000568F0000585A
(1620100659.714984) can0 1E0252D0#FFFFF3B600000DBB
(1620100659.715130) can0 1E0292D0#00000000000029FF
(1620100659.715278) can0 1E02D2D0#0000000000000000
(1620100659.715425) can0 1E0312D0#0000000000000000
(1620100659.715572) can0 1E0352D0#0000000000000000
(1620100659.715720) can0 1E0392D0#0000000000000000
(1620100659.715866) can0 1E03D2D0#0000000000000000
(1620100659.716013) can0 1E0412D0#0000000000000000
(1620100659.716160) can0 1E0452D0#0000000000000000
(1620100659.716307) can0 1E0492D0#0000000000000000
(1620100659.716455) can0 1E04D2D0#0000000000000000
(1620100659.716603) can0 1E0512D0#0000000000000000
(1620100659.716750) can0 1E0552D0#0000000000000000
(1620100659.716897) can0 1E0592D0#0000000000000000
(1620100659.717043) can0 1E05D2D0#0000000000000000
(1620100659.717190) can0 1E0612D0#0000000000000000
(1620100659.717336) can0 1FF412D0#1100EEFF0001DC1F
(1620100659.717469) can0 1FF452D0#00024ECD00000000
(1620100659.723690) can0 1E0012D0#3D750D69000539C9
(1620100659.723837) can0 1E0052D0#000002BC00000FA1
(1620100659.723974) can0 1E0092D0#00000000000004E2
(1620100659.724121) can0 1E00D2D0#00000ABA00000000
(1620100659.724268) can0 1E0112D0#00000E0A00000ABA
(1620100659.724401) can0 1E0152D0#00001A2E00000ABA
(1620100659.724549) can0 1E0192D0#0000206A00000000
(1620100659.724697) can0 1E01D2D0#00005E9700000000
(1620100659.724830) can0 1E0212D0#0000568F00005859
(1620100659.724976) can0 1E0252D0#FFFFF3B700000DBB
(1620100659.727344) can0 1E0292D0#0000000000002A00
(1620100659.727445) can0 1FF452D0#00024ECD00000000
(1620100659.727510) can0 1E02D2D0#0000000000000000
(1620100659.733701) can0 1E0012D0#3D750D7300053C4D
(1620100659.733865) can0 1E0052D0#000002BB00000FA4
(1620100659.733963) can0 1E0092D0#00000000000004E3
(1620100659.734133) can0 1E00D2D0#00000AB600000000
(1620100659.734281) can0 1E0112D0#00000E0A00000AB6
(1620100659.734379) can0 1E0152D0#00001A3F00000AB6
(1620100659.734562) can0 1E0192D0#0000205E00000000
(1620100659.734710) can0 1E01D2D0#00005EA000000000
(1620100659.734808) can0 1E0212D0#000056910000585A
(1620100659.734988) can0 1E0252D0#FFFFF3BA00000DBF
(1620100659.735136) can0 1E0292D0#0000000000002A01
(1620100659.735282) can0 1E02D2D0#0000000000000000
(1620100659.735429) can0 1E0312D0#0000000000000000
(1620100659.735576) can0 1E0352D0#0000000000000000
(1620100659.735725) can0 1E0392D0#0000000000000000
(1620100659.735871) can0 1E03D2D0#0000000000000000
(1620100659.736019) can0 1E0412D0#0000000000000000
(1620100659.736167) can0 1E0452D0#0000000000000000
(1620100659.736313) can0 1E0492D0#0000000000000000
(1620100659.736461) can0 1E04D2D0#0000000000000000
(1620100659.736608) can0 1E0512D0#0000000000000000
(1620100659.736754) can0 1E0552D0#0000000000000000
(1620100659.736901) can0 1E0592D0#0000000000000000
(1620100659.737048) can0 1E05D2D0#0000000000000000
(1620100659.737195) can0 1E0612D0#0000000000000000
(1620100659.737343) can0 1FF412D0#1100EEFF0001DC1F
(1620100659.737441) can0 1FF452D0#00024ECD00000000
(1620100659.743701) can0 1E0012D0#3D750D7D00053CEC
(1620100659.743864) can0 1E0052D0#000002BF00000FC4
(1620100659.743962) can0 1E0092D0#00000000000004ED
(1620100659.744135) can0 1E00D2D0#00000AC400000000
(1620100659.744282) can0 1E0112D0#00000E0A00000AC4
(1620100659.744380) can0 1E0152D0#00001A1600000AC4
(1620100659.744563) can0 1E0192D0#0000208600000000
(1620100659.744713) can0 1E01D2D0#00005E9600000000
(1620100659.744811) can0 1E0212D0#000056910000585D
(1620100659.744990) can0 1E0252D0#FFFFF3BA00000DBF
(1620100659.745137) can0 1E0292D0#0000000000002A00
(1620100659.745284) can0 1E02D2D0#0000000000000000
(1620100659.745430) can0 1E0312D0#0000000000000000
(1620100659.745577) can0 1E0352D0#0000000000000000
(1620100659.745723) can0 1E0392D0#0000000000000000
(1620100659.745870) can0 1E03D2D0#0000000000000000
(1620100659.746018) can0 1E0412D0#0000000000000000
(1620100659.746165) can0 1E0452D0#0000000000000000
(1620100659.746311) can0 1E0492D0#0000000000000000
(1620100659.746458) can0 1E04D2D0#0000000000000000
(1620100659.746605) can0 1E0512D0#0000000000000000
(1620100659.746752) can0 1E0552D0#0000000000000000
(1620100659.746899) can0 1E0592D0#0000000000000000
(1620100659.747046) can0 1E05D2D0#0000000000000000
(1620100659.747193) can0 1E0612D0#0000000000000000
(1620100659.747341) can0 1FF412D0#1100EEFF0001DC1F
(1620100659.747488) can0 1FF452D0#00024ECD00000000
(1620100659.753699) can0 1E0012D0#3D750D8700053C79
(1620100659.753860) can0 1E0052D0#000002BA00000F9E
(1620100659.753959) can0 1E0092D0#00000000000004E1
(1620100659.754133) can0 1E00D2D0#00000AA800000000
(1620100659.754281) can0 1E0112D0#00000E0A00000AA8
(1620100659.754379) can0 1E0152D0#00001A4900000AA8
(1620100659.754561) can0 1E0192D0#0000205500000000
(1620100659.754710) can0 1E01D2D0#00005E9800000000
(1620100659.754809) can0 1E0212D0#000056910000585D
(1620100659.754989) can0 1E0252D0#FFFFF3BB00000DC1
(1620100659.755136) can0 1E0292D0#00000000000029FF
(1620100659.755283) can0 1E02D2D0#0000000000000000
(1620100659.755431) can0 1E0312D0#0000000000000000
(1620100659.755578) can0 1E0352D0#0000000000000000
(1620100659.755725) can0 1E0392D0#0000000000000000
(1620100659.755872) can0 1E03D2D0#0000000000000000
(1620100659.756021) can0 1E0412D0#0000000000000000
(1620100659.756168) can0 1E0452D0#0000000000000000
(1620100659.756315) can0 1E0492D0#0000000000000000
(1620100659.756463) can0 1E04D2D0#0000000000000000
(1620100659.756611) can0 1E0512D0#0000000000000000
(1620100659.756759) can0 1E0552D0#0000000000000000
(1620100659.756906) can0 1E0592D0#0000000000000000
(1620100659.757053) can0 1E05D2D0#0000000000000000
(1620100659.757200) can0 1E0612D0#0000000000000000
(1620100659.757300) can0 1FF412D0#1100EEFF0001DC1F
(1620100659.757482) can0 1FF452D0#00024ECD00000000
(1620100659.763699) can0 1E0012D0#3D750D9100053A21
(1620100659.763862) can0 1E0052D0#000002BC00000FA6
(1620100659.763961) can0 1E0092D0#00000000000004E3
(1620100659.764134) can0 1E00D2D0#00000AC100000000
(1620100659.764282) can0 1E0112D0#00000E0A00000AC1
(1620100659.764380) can0 1E0152D0#00001A2800000AC1
(1620100659.764564) can0 1E0192D0#0000207000000000
(1620100659.764713) can0 1E01D2D0#00005E9400000000
(1620100659.764811) can0 1E0212D0#000056910000585B
(1620100659.764991) can0 1E0252D0#FFFFF3B900000DC1
(1620100659.765138) can0 1E0292D0#00000000000029FC
(1620100659.765286) can0 1E02D2D0#0000000000000000
(1620100659.765433) can0 1E0312D0#0000000000000000
(1620100659.765582) can0 1E0352D0#0000000000000000
(1620100659.765729) can0 1E0392D0#0000000000000000
(1620100659.765877) can0 1E03D2D0#0000000000000000
(1620100659.766025) can0 1E0412D0#0000000000000000
(1620100659.766173) can0 1E0452D0#0000000000000000
(1620100659.766320) can0 1E0492D0#0000000000000000
(1620100659.766466) can0 1E04D2D0#0000000000000000
(1620100659.766613) can0 1E0512D0#0000000000000000
(1620100659.766760) can0 1E0552D0#0000000000000000
(1620100659.766907) can0 1E0592D0#0000000000000000
(1620100659.767054) can0 1E05D2D0#0000000000000000
(1620100659.767201) can0 1E0612D0#0000000000000000
(1620100659.767301) can0 1FF412D0#1100EEFF0001DC1F
(1620100659.767483) can0 1FF452D0#00024ECD00000000
(1620100659.773699) can0 1E0012D0#3D750D9B000539AF
(1620100659.773863) can0 1E0052D0#000002B300000F68
(1620100659.773961) can0 1E0092D0#00000000000004D0
(1620100659.774132) can0 1E00D2D0#00000AB300000000
(1620100659.774280) can0 1E0112D0#00000E0A00000AB3
(1620100659.774377) can0 1E0152D0#00001A7F00000AB3
(1620100659.774564) can0 1E0192D0#0000201D00000000
(1620100659.774713) can0 1E01D2D0#00005E9B00000000
(1620100659.774811) can0 1E0212D0#000056910000585B
(1620100659.774990) can0 1E0252D0#FFFFF3B500000DC3
(1620100659.775137) can0 1E0292D0#00000000000029FC
(1620100659.775284) can0 1E02D2D0#0000000000000000
(1620100659.775431) can0 1E0312D0#0000000000000000
(1620100659.775578) can0 1E0352D0#0000000000000000
(1620100659.775725) can0 1E0392D0#0000000000000000
(1620100659.775872) can0 1E03D2D0#0000000000000000
(1620100659.776020) can0 1E0412D0#0000000000000000
(1620100659.776168) can0 1E0452D0#0000000000000000
(1620100659.776314) can0 1E0492D0#0000000000000000
(1620100659.776462) can0 1E04D2D0#0000000000000000
(1620100659.776609) can0 1E0512D0#0000000000000000
(1620100659.776756) can0 1E0552D0#0000000000000000
(1620100659.776902) can0 1E0592D0#0000000000000000
(1620100659.777049) can0 1E05D2D0#0000000000000000
(1620100659.777196) can0 1E0612D0#0000000000000000
(1620100659.777344) can0 1FF412D0#1100EEFF0001DC1F
(1620100659.777444) can0 1FF452D0#00024ECD00000000
(1620100659.783700) can0 1E0012D0#3D750DA5000537B7
(1620100659.783863) can0 1E0052D0#000002B600000F73
(1620100659.783962) can0 1E0092D0#00000000000004D3
(1620100659.784134) can0 1E00D2D0#00000AB800000000
(1620100659.784282) can0 1E0112D0#00000E0A00000AB8
(1620100659.784380) can0 1E0152D0#00001A5C00000AB8
(1620100659.784562) can0 1E0192D0#0000203B00000000
(1620100659.784711) can0 1E01D2D0#00005E9100000000
(1620100659.784809) can0 1E0212D0#0000569100005860
(1620100659.784990) can0 1E0252D0#FFFFF3B500000DC3
(1620100659.785138) can0 1E0292D0#00000000000029FF
(1620100659.785284) can0 1E02D2D0#0000000000000000
(1620100659.785431) can0 1E0312D0#0000000000000000
(1620100659.785578) can0 1E0352D0#0000000000000000
(1620100659.785725) can0 1E0392D0#0000000000000000
(1620100659.785872) can0 1E03D2D0#0000000000000000
(1620100659.786021) can0 1E0412D0#0000000000000000
(1620100659.786167) can0 1E0452D0#0000000000000000
(1620100659.786314) can0 1E0492D0#0000000000000000
(1620100659.786463) can0 1E04D2D0#0000000000000000
(1620100659.786610) can0 1E0512D0#0000000000000000
(1620100659.786757) can0 1E0552D0#0000000000000000
(1620100659.786904) can0 1E0592D0#0000000000000000
(1620100659.787051) can0 1E05D2D0#0000000000000000
(1620100659.787198) can0 1E0612D0#0000000000000000
(1620100659.787346) can0 1FF412D0#1100EEFF0001DC1F
(1620100659.787445) can0 1FF452D0#00024ECD00000000
(1620100659.793700) can0 1E0012D0#3D750DAF000537B7
(1620100659.793863) can0 1E0052D0#000002B400000F67
(1620100659.793961) can0 1E0092D0#00000000000004D0
(1620100659.794129) can0 1E00D2D0#00000ABC00000000
(1620100659.794277) can0 1E0112D0#00000E0A00000ABC
(1620100659.794375) can0 1E0152D0#00001A6D00000ABC
(1620100659.794559) can0 1E0192D0#0000202B00000000
(1620100659.794707) can0 1E01D2D0#00005E9400000000
(1620100659.794805) can0 1E0212D0#0000569200005860
(1620100659.794985) can0 1E0252D0#FFFFF3B400000DBF
(1620100659.795133) can0 1E0292D0#00000000000029FD
(1620100659.795280) can0 1E02D2D0#0000000000000000
(1620100659.795428) can0 1E0312D0#0000000000000000
(1620100659.795575) can0 1E0352D0#0000000000000000
(1620100659.795722) can0 1E0392D0#0000000000000000
(1620100659.795869) can0 1E03D2D0#0000000000000000
(1620100659.796017) can0 1E0412D0#0000000000000000
(1620100659.796164) can0 1E0452D0#0000000000000000
(1620100659.796311) can0 1E0492D0#0000000000000000
(1620100659.796458) can0 1E04D2D0#0000000000000000
(1620100659.796604) can0 1E0512D0#0000000000000000
(1620100659.796751) can0 1E0552D0#0000000000000000
(1620100659.796898) can0 1E0592D0#0000000000000000
(1620100659.797045) can0 1E05D2D0#0000000000000000
(1620100659.797192) can0 1E0612D0#0000000000000000
(1620100659.797340) can0 1FF412D0#1100EEFF0001DC1F
(1620100659.797438) can0 1FF452D0#00024ECD00000000
(1620100659.803699) can0 1E0012D0#3D750DB900053B71
(1620100659.803862) can0 1E0052D0#000002B900000F94
(1620100659.803960) can0 1E0092D0#00000000000004DE
(1620100659.804132) can0 1E00D2D0#00000AB700000000
(1620100659.804279) can0 1E0112D0#00000E0A00000AB7
(1620100659.804379) can0 1E0152D0#00001A4C00000AB7
(1620100659.804560) can0 1E0192D0#0000205000000000
(1620100659.804710) can0 1E01D2D0#00005E9200000000
(1620100659.804808) can0 1E0212D0#000056920000585F
(1620100659.804988) can0 1E0252D0#FFFFF3B700000DBF
(1620100659.805136) can0 1E0292D0#00000000000029FF
(1620100659.805284) can0 1E02D2D0#0000000000000000
(1620100659.805431) can0 1E0312D0#0000000000000000
(1620100659.805578) can0 1E0352D0#0000000000000000
(1620100659.805725) can0 1E0392D0#0000000000000000
(1620100659.805872) can0 1E03D2D0#0000000000000000
(1620100659.806021) can0 1E0412D0#0000000000000000
(1620100659.806168) can0 1E0452D0#0000000000000000
(1620100659.806314) can0 1E0492D0#0000000000000000
(1620100659.806461) can0 1E04D2D0#0000000000000000
(1620100659.806608) can0 1E0512D0#0000000000000000
(1620100659.806755) can0 1E0552D0#0000000000000000
(1620100659.806902) can0 1E0592D0#0000000000000000
(1620100659.807049) can0 1E05D2D0#0000000000000000
(1620100659.807196) can0 1E0612D0#0000000000000000
(1620100659.807346) can0 1FF412D0#1100EEFF0001DC1F
(1620100659.807444) can0 1FF452D0#00024ECD00000000
(1620100659.813699) can0 1E0012D0#3D750DC300053DA3
(1620100659.813862) can0 1E0052D0#000002B900000F97
(1620100659.813960) can0 1E0092D0#00000000000004DF
(1620100659.814134) can0 1E00D2D0#00000ABE00000000
(1620100659.814281) can0 1E0112D0#00000E0A00000ABE
(1620100659.814379) can0 1E0152D0#00001A5C00000ABE
(1620100659.814566) can0 1E0192D0#0000204400000000
(1620100659.814715) can0 1E01D2D0#00005E9700000000
(1620100659.814813) can0 1E0212D0#000056920000585F
(1620100659.814992) can0 1E0252D0#FFFFF3B900000DBA
(1620100659.815140) can0 1E0292D0#00000000000029F8
(1620100659.815287) can0 1E02D2D0#0000000000000000
(1620100659.815434) can0 1E0312D0#0000000000000000
(1620100659.815581) can0 1E0352D0#0000000000000000
(1620100659.815728) can0 1E0392D0#0000000000000000
(1620100659.815875) can0 1E03D2D0#0000000000000000
(1620100659.816023) can0 1E0412D0#0000000000000000
(1620100659.816170) can0 1E0452D0#0000000000000000
(1620100659.816319) can0 1E0492D0#0000000000000000
(1620100659.816466) can0 1E04D2D0#0000000000000000
(1620100659.816612) can0 1E0512D0#0000000000000000
(1620100659.816759) can0 1E0552D0#0000000000000000
(1620100659.816906) can0 1E0592D0#0000000000000000
(1620100659.817053) can0 1E05D2D0#0000000000000000
(1620100659.817200) can0 1E0612D0#0000000000000000
(1620100659.817349) can0 1FF412D0#1100EEFF0001DC1F
(1620100659.817447) can0 1FF452D0#00024ECD00000000
(1620100659.823700) can0 1E0012D0#3D750DCD00053E43
(1620100659.823862) can0 1E0052D0#000002B900000F95
(1620100659.823961) can0 1E0092D0#00000000000004DE
(1620100659.824133) can0 1E00D2D0#00000AB800000000
(1620100659.824281) can0 1E0112D0#00000E0A00000AB8
(1620100659.824380) can0 1E0152D0#00001A6500000AB8
(1620100659.824564) can0 1E0192D0#0000203C00000000
(1620100659.824728) can0 1E01D2D0#00005E9700000000
(1620100659.824827) can0 1E0212D0#000056920000585E
(1620100659.824992) can0 1E0252D0#FFFFF3BA00000DBA
(1620100659.825146) can0 1E0292D0#00000000000029F7
(1620100659.825246) can0 1E02D2D0#0000000000000000
(1620100659.825431) can0 1E0312D0#0000000000000000
(1620100659.825578) can0 1E0352D0#0000000000000000
(1620100659.825725) can0 1E0392D0#0000000000000000
(1620100659.825872) can0 1E03D2D0#0000000000000000
(1620100659.826034) can0 1E0412D0#0000000000000000
(1620100659.826134) can0 1E0452D0#0000000000000000
(1620100659.826315) can0 1E0492D0#0000000000000000
(1620100659.826462) can0 1E04D2D0#0000000000000000
(1620100659.826609) can0 1E0512D0#0000000000000000
(1620100659.826757) can0 1E0552D0#0000000000000000
(1620100659.826904) can0 1E0592D0#0000000000000000
(1620100659.827051) can0 1E05D2D0#0000000000000000
(1620100659.827198) can0 1E0612D0#0000000000000000
(1620100659.827360) can0 1FF412D0#1100EEFF0001DC1F
(1620100659.827460) can0 1FF452D0#00024ECD00000000
(1620100659.833699) can0 1E0012D0#3D750DD700053EC9
(1620100659.833869) can0 1E0052D0#000002BC00000FB2
(1620100659.833967) can0 1E0092D0#00000000000004E7
(1620100659.834132) can0 1E00D2D0#00000ACA00000000
(1620100659.834281) can0 1E0112D0#00000E0A00000ACA
(1620100659.834379) can0 1E0152D0#00001A3F00000ACA
(1620100659.834561) can0 1E0192D0#0000206200000000
(1620100659.834710) can0 1E01D2D0#00005E9800000000
(1620100659.834807) can0 1E0212D0#000056910000585E
(1620100659.834988) can0 1E0252D0#FFFFF3BB00000DBF
(1620100659.835136) can0 1E0292D0#00000000000029F3
(1620100659.835283) can0 1E02D2D0#0000000000000000
(1620100659.835430) can0 1E0312D0#0000000000000000
(1620100659.835577) can0 1E0352D0#0000000000000000
(1620100659.835724) can0 1E0392D0#0000000000000000
(1620100659.835870) can0 1E03D2D0#0000000000000000
(1620100659.836019) can0 1E0412D0#0000000000000000
(1620100659.836166) can0 1E0452D0#0000000000000000
(1620100659.836313) can0 1E0492D0#0000000000000000
(1620100659.836460) can0 1E04D2D0#0000000000000000
(1620100659.836607) can0 1E0512D0#0000000000000000
(1620100659.836754) can0 1E0552D0#0000000000000000
(1620100659.836901) can0 1E0592D0#0000000000000000
(1620100659.837048) can0 1E05D2D0#0000000000000000
(1620100659.837196) can0 1E0612D0#0000000000000000
(1620100659.837345) can0 1FF412D0#1100EEFF0001DC1F
(1620100659.837443) can0 1FF452D0#00024ECD00000000
(1620100659.843699) can0 1E0012D0#3D750DE100053E5A
(1620100659.843865) can0 1E0052D0#000002B900000F9A
(1620100659.843964) can0 1E0092D0#00000000000004E0
(1620100659.844132) can0 1E00D2D0#00000AB000000000
(1620100659.844279) can0 1E0112D0#00000E0A00000AB0
(1620100659.844377) can0 1E0152D0#00001A5E00000AB0
(1620100659.844560) can0 1E0192D0#0000204300000000
(1620100659.844709) can0 1E01D2D0#00005E9300000000
(1620100659.844807) can0 1E0212D0#000056910000585A
(1620100659.844987) can0 1E0252D0#FFFFF3BA00000DBF
(1620100659.845134) can0 1E0292D0#00000000000029F5
(1620100659.845281) can0 1E02D2D0#0000000000000000
(1620100659.845428) can0 1E0312D0#0000000000000000
(1620100659.845575) can0 1E0352D0#0000000000000000
(1620100659.845721) can0 1E0392D0#0000000000000000
(1620100659.845868) can0 1E03D2D0#0000000000000000
(1620100659.846017) can0 1E0412D0#0000000000000000
(1620100659.846165) can0 1E0452D0#0000000000000000
(1620100659.846311) can0 1E0492D0#0000000000000000
(1620100659.846458) can0 1E04D2D0#0000000000000000
(1620100659.846605) can0 1E0512D0#0000000000000000
(1620100659.846752) can0 1E0552D0#0000000000000000
(1620100659.846899) can0 1E0592D0#0000000000000000
(1620100659.847046) can0 1E05D2D0#0000000000000000
(1620100659.847192) can0 1E0612D0#0000000000000000
(1620100659.847340) can0 1FF412D0#1100EEFF0001DC1F
(1620100659.847438) can0 1FF452D0#00024ECD00000000
(1620100659.853697) can0 1E0012D0#3D750DEB00053A39
(1620100659.853858) can0 1E0052D0#000002BA00000F9B
(1620100659.853956) can0 1E0092D0#00000000000004E0
(1620100659.854129) can0 1E00D2D0#00000AC800000000
(1620100659.854277) can0 1E0112D0#00000E0A00000AC8
(1620100659.854375) can0 1E0152D0#00001A3500000AC8
(1620100659.854559) can0 1E0192D0#0000206400000000
(1620100659.854707) can0 1E01D2D0#00005E9300000000
(1620100659.854805) can0 1E0212D0#000056910000585A
(1620100659.854985) can0 1E0252D0#FFFFF3BB00000DC1
(1620100659.855135) can0 1E0292D0#00000000000029F6
(1620100659.855282) can0 1E02D2D0#0000000000000000
(1620100659.855428) can0 1E0312D0#0000000000000000
(1620100659.855575) can0 1E0352D0#0000000000000000
(1620100659.855722) can0 1E0392D0#0000000000000000
(1620100659.855869) can0 1E03D2D0#0000000000000000
(1620100659.856018) can0 1E0412D0#0000000000000000
(1620100659.856165) can0 1E0452D0#0000000000000000
(1620100659.856312) can0 1E0492D0#0000000000000000
(1620100659.856459) can0 1E04D2D0#0000000000000000
(1620100659.856606) can0 1E0512D0#0000000000000000
(1620100659.856753) can0 1E0552D0#0000000000000000
(1620100659.856899) can0 1E0592D0#0000000000000000
(1620100659.857046) can0 1E05D2D0#0000000000000000
(1620100659.857193) can0 1E0612D0#0000000000000000
(1620100659.857341) can0 1FF412D0#1100EEFF0001DC1F
(1620100659.857439) can0 1FF452D0#00024ECD00000000
(1620100659.863698) can0 1E0012D0#3D750DF5000538E2
(1620100659.863859) can0 1E0052D0#000002B300000F5F
(1620100659.863957) can0 1E0092D0#00000000000004CD
(1620100659.864130) can0 1E00D2D0#00000ABC00000000
(1620100659.864277) can0 1E0112D0#00000E0900000ABC
(1620100659.864375) can0 1E0152D0#00001A8200000ABC
(1620100659.864559) can0 1E0192D0#0000201900000000
(1620100659.864709) can0 1E01D2D0#00005E9400000000
(1620100659.864807) can0 1E0212D0#0000569100005858
(1620100659.864986) can0 1E0252D0#FFFFF3B800000DC1
(1620100659.865134) can0 1E0292D0#00000000000029F3
(1620100659.865280) can0 1E02D2D0#0000000000000000
(1620100659.865427) can0 1E0312D0#0000000000000000
(1620100659.865575) can0 1E0352D0#0000000000000000
(1620100659.865721) can0 1E0392D0#0000000000000000
(1620100659.865868) can0 1E03D2D0#0000000000000000
(1620100659.866017) can0 1E0412D0#0000000000000000
(1620100659.866164) can0 1E0452D0#0000000000000000
(1620100659.866311) can0 1E0492D0#0000000000000000
(1620100659.866458) can0 1E04D2D0#0000000000000000
(1620100659.866605) can0 1E0512D0#0000000000000000
(1620100659.866752) can0 1E0552D0#0000000000000000
(1620100659.866899) can0 1E0592D0#0000000000000000
(1620100659.867048) can0 1E05D2D0#0000000000000000
(1620100659.867195) can0 1E0612D0#0000000000000000
(1620100659.867343) can0 1FF412D0#1100EEFF0001DC1F
(1620100659.867441) can0 1FF452D0#00024ECD00000000
(1620100659.873697) can0 1E0012D0#3D750DFF000536A4
(1620100659.873858) can0 1E0052D0#000002B500000F6D
(1620100659.873957) can0 1E0092D0#00000000000004D2
(1620100659.874131) can0 1E00D2D0#00000ABD00000000
(1620100659.874278) can0 1E0112D0#00000E0A00000ABD
(1620100659.874376) can0 1E0152D0#00001A5800000ABD
(1620100659.874559) can0 1E0192D0#0000203D00000000
(1620100659.874708) can0 1E01D2D0#00005E9800000000
(1620100659.874806) can0 1E0212D0#0000569100005858
(1620100659.874986) can0 1E0252D0#FFFFF3B500000DC3
(1620100659.875133) can0 1E0292D0#00000000000029F4
(1620100659.875280) can0 1E02D2D0#0000000000000000
(1620100659.875427) can0 1E0312D0#0000000000000000
(1620100659.875574) can0 1E0352D0#0000000000000000
(1620100659.875721) can0 1E0392D0#0000000000000000
(1620100659.875868) can0 1E03D2D0#0000000000000000
(1620100659.876018) can0 1E0412D0#0000000000000000
(1620100659.876165) can0 1E0452D0#0000000000000000
(1620100659.876312) can0 1E0492D0#0000000000000000
(1620100659.876459) can0 1E04D2D0#0000000000000000
(1620100659.876606) can0 1E0512D0#0000000000000000
(1620100659.876752) can0 1E0552D0#0000000000000000
(1620100659.876899) can0 1E0592D0#0000000000000000
(1620100659.877046) can0 1E05D2D0#0000000000000000
(1620100659.877193) can0 1E0612D0#0000000000000000
(1620100659.877341) can0 1FF412D0#1100EEFF0001DC1F
(1620100659.877439) can0 1FF452D0#00024ECD00000000
(1620100659.883698) can0 1E0012D0#3D750E09000536A4
(1620100659.883858) can0 1E0052D0#000002B400000F62
(1620100659.883957) can0 1E0092D0#00000000000004CE
(1620100659.884130) can0 1E00D2D0#00000AC200000000
(1620100659.884278) can0 1E0112D0#00000E0A00000AC2
(1620100659.884376) can0 1E0152D0#00001A6800000AC2
(1620100659.884560) can0 1E0192D0#0000202E00000000
(1620100659.884709) can0 1E01D2D0#00005E9600000000
(1620100659.884808) can0 1E0212D0#0000569100005857
(1620100659.884986) can0 1E0252D0#FFFFF3B600000DC3
(1620100659.885133) can0 1E0292D0#00000000000029F4
(1620100659.885280) can0 1E02D2D0#0000000000000000
(1620100659.885427) can0 1E0312D0#0000000000000000
(1620100659.885575) can0 1E0352D0#0000000000000000
(1620100659.885721) can0 1E0392D0#0000000000000000
(1620100659.885868) can0 1E03D2D0#0000000000000000
(1620100659.886016) can0 1E0412D0#0000000000000000
(1620100659.886163) can0 1E0452D0#0000000000000000
(1620100659.886309) can0 1E0492D0#0000000000000000
(1620100659.886456) can0 1E04D2D0#0000000000000000
(1620100659.886603) can0 1E0512D0#0000000000000000
(1620100659.886749) can0 1E0552D0#0000000000000000
(1620100659.886896) can0 1E0592D0#0000000000000000
(1620100659.887042) can0 1E05D2D0#0000000000000000
(1620100659.887189) can0 1E0612D0#0000000000000000
(1620100659.887337) can0 1FF412D0#1100EEFF0001DC1F
(1620100659.887484) can0 1FF452D0#00024ECD00000000
(1620100659.893697) can0 1E0012D0#3D750E13000538FC
(1620100659.893870) can0 1E0052D0#000002B900000F88
(1620100659.893969) can0 1E0092D0#00000000000004DA
(1620100659.894132) can0 1E00D2D0#00000ABC00000000
(1620100659.894230) can0 1E0112D0#00000E0A00000ABC
(1620100659.894412) can0 1E0152D0#00001A4400000ABC
(1620100659.894560) can0 1E0192D0#0000205400000000
(1620100659.894708) can0 1E01D2D0#00005E9D00000000
(1620100659.894806) can0 1E0212D0#0000569100005857
(1620100659.894984) can0 1E0252D0#FFFFF3B500000DBE
(1620100659.895131) can0 1E0292D0#00000000000029F7
(1620100659.895278) can0 1E02D2D0#0000000000000000
(1620100659.895425) can0 1E0312D0#0000000000000000
(1620100659.895572) can0 1E0352D0#0000000000000000
(1620100659.895718) can0 1E0392D0#0000000000000000
(1620100659.895865) can0 1E03D2D0#0000000000000000
(1620100659.896014) can0 1E0412D0#0000000000000000
(1620100659.896160) can0 1E0452D0#0000000000000000
(1620100659.896307) can0 1E0492D0#0000000000000000
(1620100659.896454) can0 1E04D2D0#0000000000000000
(1620100659.896601) can0 1E0512D0#0000000000000000
(1620100659.896748) can0 1E0552D0#0000000000000000
(1620100659.896896) can0 1E0592D0#0000000000000000
(1620100659.897043) can0 1E05D2D0#0000000000000000
(1620100659.897190) can0 1E0612D0#0000000000000000
(1620100659.897338) can0 1FF412D0#1100EEFF0001DC1F
(1620100659.897436) can0 1FF452D0#00024ECD00000000
(1620100659.903696) can0 1E0012D0#3D750E1D00053B26
(1620100659.903860) can0 1E0052D0#000002B700000F81
(1620100659.903958) can0 1E0092D0#00000000000004D8
(1620100659.904131) can0 1E00D2D0#00000ABF00000000
(1620100659.904278) can0 1E0112D0#00000E0A00000ABF
(1620100659.904376) can0 1E0152D0#00001A6300000ABF
(1620100659.904563) can0 1E0192D0#0000203A00000000
(1620100659.904712) can0 1E01D2D0#00005E9900000000
(1620100659.904810) can0 1E0212D0#0000569100005856
(1620100659.904993) can0 1E0252D0#FFFFF3B800000DBE
(1620100659.905140) can0 1E0292D0#00000000000029F3
(1620100659.905287) can0 1E02D2D0#0000000000000000
(1620100659.905435) can0 1E0312D0#0000000000000000
(1620100659.905581) can0 1E0352D0#0000000000000000
(1620100659.905728) can0 1E0392D0#0000000000000000
(1620100659.905876) can0 1E03D2D0#0000000000000000
(1620100659.906024) can0 1E0412D0#0000000000000000
(1620100659.906171) can0 1E0452D0#0000000000000000
(1620100659.906318) can0 1E0492D0#0000000000000000
(1620100659.906465) can0 1E04D2D0#0000000000000000
(1620100659.906612) can0 1E0512D0#0000000000000000
(1620100659.906758) can0 1E0552D0#0000000000000000
(1620100659.906905) can0 1E0592D0#0000000000000000
(1620100659.907052) can0 1E05D2D0#0000000000000000
(1620100659.907198) can0 1E0612D0#0000000000000000
(1620100659.907347) can0 1FF412D0#1100EEFF0001DC1F
(1620100659.907445) can0 1FF452D0#00024ECD00000000
(1620100659.913696) can0 1E0012D0#3D750E2700053C15
(1620100659.913858) can0 1E0052D0#000002B600000F7F
(1620100659.913957) can0 1E0092D0#00000000000004D7
(1620100659.914128) can0 1E00D2D0#00000ABA00000000
(1620100659.914275) can0 1E0112D0#00000E0A00000ABA
(1620100659.914373) can0 1E0152D0#00001A6E00000ABA
(1620100659.914557) can0 1E0192D0#0000203100000000
(1620100659.914706) can0 1E01D2D0#00005E9B00000000
(1620100659.914805) can0 1E0212D0#0000569100005856
(1620100659.914984) can0 1E0252D0#FFFFF3BC00000DC0
(1620100659.915132) can0 1E0292D0#00000000000029F2
(1620100659.915279) can0 1E02D2D0#0000000000000000
(1620100659.915425) can0 1E0312D0#0000000000000000
(1620100659.915572) can0 1E0352D0#0000000000000000
(1620100659.915718) can0 1E0392D0#0000000000000000
(1620100659.915865) can0 1E03D2D0#0000000000000000
(1620100659.916014) can0 1E0412D0#0000000000000000
(1620100659.916161) can0 1E0452D0#0000000000000000
(1620100659.916307) can0 1E0492D0#0000000000000000
(1620100659.916454) can0 1E04D2D0#0000000000000000
(1620100659.916600) can0 1E0512D0#0000000000000000
(1620100659.916747) can0 1E0552D0#0000000000000000
(1620100659.916894) can0 1E0592D0#0000000000000000
(1620100659.917041) can0 1E05D2D0#0000000000000000
(1620100659.917187) can0 1E0612D0#0000000000000000
(1620100659.917336) can0 1FF412D0#1100EEFF0001DC1F
(1620100659.917483) can0 1FF452D0#00024ECD00000000
(1620100659.923696) can0 1E0012D0#3D750E3100053DB5
(1620100659.923858) can0 1E0052D0#000002BA00000FA2
(1620100659.923956) can0 1E0092D0#00000000000004E2
(1620100659.924127) can0 1E00D2D0#00000AC800000000
(1620100659.924275) can0 1E0112D0#00000E0A00000AC8
(1620100659.924372) can0 1E0152D0#00001A4900000AC8
(1620100659.924558) can0 1E0192D0#0000205600000000
(1620100659.924707) can0 1E01D2D0#00005E9700000000
(1620100659.924805) can0 1E0212D0#0000569100005854
(1620100659.924987) can0 1E0252D0#FFFFF3BC00000DC0
(1620100659.925140) can0 1E0292D0#00000000000029F1
(1620100659.925239) can0 1E02D2D0#0000000000000000
(1620100659.925426) can0 1E0312D0#0000000000000000
(1620100659.925574) can0 1E0352D0#0000000000000000
(1620100659.925720) can0 1E0392D0#0000000000000000
(1620100659.925867) can0 1E03D2D0#0000000000000000
(1620100659.926015) can0 1E0412D0#0000000000000000
(1620100659.926162) can0 1E0452D0#0000000000000000
(1620100659.926309) can0 1E0492D0#0000000000000000
(1620100659.926456) can0 1E04D2D0#0000000000000000
(1620100659.926602) can0 1E0512D0#0000000000000000
(1620100659.926750) can0 1E0552D0#0000000000000000
(1620100659.926897) can0 1E0592D0#0000000000000000
(1620100659.927044) can0 1E05D2D0#0000000000000000
(1620100659.927190) can0 1E0612D0#0000000000000000
(1620100659.927339) can0 1FF412D0#1100EEFF0001DC1F
(1620100659.927486) can0 1FF452D0#00024ECD00000000
(1620100659.933696) can0 1E0012D0#3D750E3B00053F26
(1620100659.933857) can0 1E0052D0#000002B800000F96
(1620100659.933955) can0 1E0092D0#00000000000004DF
(1620100659.934130) can0 1E00D2D0#00000AB000000000
(1620100659.934278) can0 1E0112D0#00000E0A00000AB0
(1620100659.934376) can0 1E0152D0#00001A6700000AB0
(1620100659.934561) can0 1E0192D0#0000203B00000000
(1620100659.934710) can0 1E01D2D0#00005E9B00000000
(1620100659.934808) can0 1E0212D0#0000569200005855
(1620100659.934987) can0 1E0252D0#FFFFF3BB00000DC3
(1620100659.935135) can0 1E0292D0#00000000000029F1
(1620100659.935281) can0 1E02D2D0#0000000000000000
(1620100659.935428) can0 1E0312D0#0000000000000000
(1620100659.935575) can0 1E0352D0#0000000000000000
(1620100659.935723) can0 1E0392D0#0000000000000000
(1620100659.935870) can0 1E03D2D0#0000000000000000
(1620100659.936019) can0 1E0412D0#0000000000000000
(1620100659.936166) can0 1E0452D0#0000000000000000
(1620100659.936313) can0 1E0492D0#0000000000000000
(1620100659.936459) can0 1E04D2D0#0000000000000000
(1620100659.936606) can0 1E0512D0#0000000000000000
(1620100659.936753) can0 1E0552D0#0000000000000000
(1620100659.936900) can0 1E0592D0#0000000000000000
(1620100659.937047) can0 1E05D2D0#0000000000000000
(1620100659.937194) can0 1E0612D0#0000000000000000
(1620100659.937342) can0 1FF412D0#1100EEFF0001DC1F
(1620100659.937440) can0 1FF452D0#00024ECD00000000
(1620100659.943695) can0 1E0012D0#3D750E4500053D33
(1620100659.943856) can0 1E0052D0#000002B800000F96
(1620100659.943955) can0 1E0092D0#00000000000004DF
(1620100659.944128) can0 1E00D2D0#00000ACA00000000
(1620100659.944276) can0 1E0112D0#00000E0A00000ACA
(1620100659.944375) can0 1E0152D0#00001A5500000ACA
(1620100659.944557) can0 1E0192D0#0000204A00000000
(1620100659.944708) can0 1E01D2D0#00005E9400000000
(1620100659.944806) can0 1E0212D0#0000569200005855
(1620100659.944985) can0 1E0252D0#FFFFF3B900000DC3
(1620100659.945132) can0 1E0292D0#00000000000029F2
(1620100659.945279) can0 1E02D2D0#0000000000000000
(1620100659.945426) can0 1E0312D0#0000000000000000
(1620100659.945573) can0 1E0352D0#0000000000000000
(1620100659.945720) can0 1E0392D0#0000000000000000
(1620100659.945866) can0 1E03D2D0#0000000000000000
(1620100659.946015) can0 1E0412D0#0000000000000000
(1620100659.946161) can0 1E0452D0#0000000000000000
(1620100659.946309) can0 1E0492D0#0000000000000000
(1620100659.946456) can0 1E04D2D0#0000000000000000
(1620100659.946602) can0 1E0512D0#0000000000000000
(1620100659.946749) can0 1E0552D0#0000000000000000
(1620100659.946896) can0 1E0592D0#0000000000000000
(1620100659.947043) can0 1E05D2D0#0000000000000000
(1620100659.947190) can0 1E0612D0#0000000000000000
(1620100659.947338) can0 1FF412D0#1100EEFF0001DC1F
(1620100659.947436) can0 1FF452D0#00024ECD00000000
(1620100659.953695) can0 1E0012D0#3D750E4F00053DD6
(1620100659.953857) can0 1E0052D0#000002B000000F5E
(1620100659.953955) can0 1E0092D0#00000000000004CD
(1620100659.954126) can0 1E00D2D0#00000ABD00000000
(1620100659.954274) can0 1E0112D0#00000E0900000ABD
(1620100659.954372) can0 1E0152D0#00001AAE00000ABD
(1620100659.954556) can0 1E0192D0#00001FF600000000
(1620100659.954705) can0 1E01D2D0#00005E9700000000
(1620100659.954803) can0 1E0212D0#0000569200005855
(1620100659.954983) can0 1E0252D0#FFFFF3B700000DC7
(1620100659.955130) can0 1E0292D0#00000000000029F4
(1620100659.955277) can0 1E02D2D0#0000000000000000
(1620100659.955423) can0 1E0312D0#0000000000000000
(1620100659.955570) can0 1E0352D0#0000000000000000
(1620100659.955717) can0 1E0392D0#0000000000000000
(1620100659.955864) can0 1E03D2D0#0000000000000000
(1620100659.956012) can0 1E0412D0#0000000000000000
(1620100659.956159) can0 1E0452D0#0000000000000000
(1620100659.956306) can0 1E0492D0#0000000000000000
(1620100659.956453) can0 1E04D2D0#0000000000000000
(1620100659.956601) can0 1E0512D0#0000000000000000
(1620100659.956748) can0 1E0552D0#0000000000000000
(1620100659.956895) can0 1E0592D0#0000000000000000
(1620100659.957042) can0 1E05D2D0#0000000000000000
(1620100659.957189) can0 1E0612D0#0000000000000000
(1620100659.957338) can0 1FF412D0#1100EEFF0001DC1F
(1620100659.957435) can0 1FF452D0#00024ECD00000000
(1620100659.963696) can0 1E0012D0#3D750E5900053CCF
(1620100659.963858) can0 1E0052D0#000002B300000F72
(1620100659.963956) can0 1E0092D0#00000000000004D3
(1620100659.964128) can0 1E00D2D0#00000ABB00000000
(1620100659.964276) can0 1E0112D0#00000E0A00000ABB
(1620100659.964374) can0 1E0152D0#00001A8700000ABB
(1620100659.964558) can0 1E0192D0#0000201A00000000
(1620100659.964707) can0 1E01D2D0#00005E9400000000
(1620100659.964806) can0 1E0212D0#0000569200005853
(1620100659.964986) can0 1E0252D0#FFFFF3B600000DC7
(1620100659.965134) can0 1E0292D0#00000000000029F3
(1620100659.965281) can0 1E02D2D0#0000000000000000
(1620100659.965428) can0 1E0312D0#0000000000000000
(1620100659.965576) can0 1E0352D0#0000000000000000
(1620100659.965723) can0 1E0392D0#0000000000000000
(1620100659.965870) can0 1E03D2D0#0000000000000000
(1620100659.966017) can0 1E0412D0#0000000000000000
(1620100659.966165) can0 1E0452D0#0000000000000000
(1620100659.966311) can0 1E0492D0#0000000000000000
(1620100659.966458) can0 1E04D2D0#0000000000000000
(1620100659.966605) can0 1E0512D0#0000000000000000
(1620100659.966751) can0 1E0552D0#0000000000000000
(1620100659.966898) can0 1E0592D0#0000000000000000
(1620100659.967045) can0 1E05D2D0#0000000000000000
(1620100659.967191) can0 1E0612D0#0000000000000000
(1620100659.967340) can0 1FF412D0#1100EEFF0001DC1F
(1620100659.967438) can0 1FF452D0#00024ECD00000000
(1620100659.973695) can0 1E0012D0#3D750E63000540A1
(1620100659.973857) can0 1E0052D0#000002B300000F7D
(1620100659.973955) can0 1E0092D0#00000000000004D7
(1620100659.974129) can0 1E00D2D0#00000ABE00000000
(1620100659.974277) can0 1E0112D0#00000E0A00000ABE
(1620100659.974375) can0 1E0152D0#00001A9900000ABE
(1620100659.974561) can0 1E0192D0#0000200F00000000
(1620100659.974710) can0 1E01D2D0#00005E9C00000000
(1620100659.974808) can0 1E0212D0#0000569300005853
(1620100659.974986) can0 1E0252D0#FFFFF3B600000DC6
(1620100659.975134) can0 1E0292D0#00000000000029F3
(1620100659.975281) can0 1E02D2D0#0000000000000000
(1620100659.975427) can0 1E0312D0#0000000000000000
(1620100659.975575) can0 1E0352D0#0000000000000000
(1620100659.975722) can0 1E0392D0#0000000000000000
(1620100659.975868) can0 1E03D2D0#0000000000000000
(1620100659.976017) can0 1E0412D0#0000000000000000
(1620100659.976163) can0 1E0452D0#0000000000000000
(1620100659.976310) can0 1E0492D0#0000000000000000
(1620100659.976457) can0 1E04D2D0#0000000000000000
(1620100659.976604) can0 1E0512D0#0000000000000000
(1620100659.976751) can0 1E0552D0#0000000000000000
(1620100659.976898) can0 1E0592D0#0000000000000000
(1620100659.977045) can0 1E05D2D0#0000000000000000
(1620100659.977192) can0 1E0612D0#0000000000000000
(1620100659.977340) can0 1FF412D0#1100EEFF0001DC1F
(1620100659.977440) can0 1FF452D0#00024ECD00000000
(1620100659.983695) can0 1E0012D0#3D750E6D000540A1
(1620100659.983857) can0 1E0052D0#000002B800000F9D
(1620100659.983955) can0 1E0092D0#00000000000004E1
(1620100659.984129) can0 1E00D2D0#00000AB600000000
(1620100659.984276) can0 1E0112D0#00000E0A00000AB6
(1620100659.984374) can0 1E0152D0#00001A6A00000AB6
(1620100659.984556) can0 1E0192D0#0000203B00000000
(1620100659.984705) can0 1E01D2D0#00005E9400000000
(1620100659.984803) can0 1E0212D0#0000569300005852
(1620100659.984982) can0 1E0252D0#FFFFF3B800000DC6
(1620100659.985130) can0 1E0292D0#00000000000029F6
(1620100659.985276) can0 1E02D2D0#0000000000000000
(1620100659.985423) can0 1E0312D0#0000000000000000
(1620100659.985570) can0 1E0352D0#0000000000000000
(1620100659.985716) can0 1E0392D0#0000000000000000
(1620100659.985863) can0 1E03D2D0#0000000000000000
(1620100659.986012) can0 1E0412D0#0000000000000000
(1620100659.986160) can0 1E0452D0#0000000000000000
(1620100659.986307) can0 1E0492D0#0000000000000000
(1620100659.986455) can0 1E04D2D0#0000000000000000
(1620100659.986602) can0 1E0512D0#0000000000000000
(1620100659.986749) can0 1E0552D0#0000000000000000
(1620100659.986896) can0 1E0592D0#0000000000000000
(1620100659.987043) can0 1E05D2D0#0000000000000000
(1620100659.987190) can0 1E0612D0#0000000000000000
(1620100659.987338) can0 1FF412D0#1100EEFF0001DC1F
(1620100659.987437) can0 1FF452D0#00024ECD00000000
(1620100659.993696) can0 1E0012D0#3D750E7700054251
(1620100659.993857) can0 1E0052D0#000002B600000F95
(1620100659.993955) can0 1E0092D0#00000000000004DE
(1620100659.994128) can0 1E00D2D0#00000AC100000000
(1620100659.994275) can0 1E0112D0#00000E0A00000AC1
(1620100659.994373) can0 1E0152D0#00001A8500000AC1
(1620100659.994558) can0 1E0192D0#0000202400000000
(1620100659.994707) can0 1E01D2D0#00005E9B00000000
(1620100659.994805) can0 1E0212D0#0000569300005852
(1620100659.994983) can0 1E0252D0#FFFFF3BA00000DC1
(1620100659.995131) can0 1E0292D0#00000000000029F3
(1620100659.995278) can0 1E02D2D0#0000000000000000
(1620100659.995426) can0 1E0312D0#0000000000000000
(1620100659.995573) can0 1E0352D0#0000000000000000
(1620100659.995720) can0 1E0392D0#0000000000000000
(1620100659.995867) can0 1E03D2D0#0000000000000000
(1620100659.996015) can0 1E0412D0#0000000000000000
(1620100659.996162) can0 1E0452D0#0000000000000000
(1620100659.996308) can0 1E0492D0#0000000000000000
(1620100659.996455) can0 1E04D2D0#0000000000000000
(1620100659.996603) can0 1E0512D0#0000000000000000
(1620100659.996749) can0 1E0552D0#0000000000000000
(1620100659.996896) can0 1E0592D0#0000000000000000
(1620100659.997043) can0 1E05D2D0#0000000000000000
(1620100659.997190) can0 1E0612D0#0000000000000000
(1620100659.997337) can0 1FF412D0#1100EEFF0001DC1F
(1620100659.997435) can0 1FF452D0#00024ECD00000000
(1620100660.003695) can0 1E0012D0#3D750E81000543D9
(1620100660.003856) can0 1E0052D0#000002B600000F9B
(1620100660.003955) can0 1E0092D0#00000000000004E0
(1620100660.004128) can0 1E00D2D0#00000ABD00000000
(1620100660.004275) can0 1E0112D0#00000E0A00000ABD
(1620100660.004375) can0 1E0152D0#00001A8900000ABD
(1620100660.004555) can0 1E0192D0#0000202200000000
(1620100660.004704) can0 1E01D2D0#00005E9400000000
(1620100660.004802) can0 1E0212D0#0000569300005852
(1620100660.004982) can0 1E0252D0#FFFFF3BC00000DC1
(1620100660.005129) can0 1E0292D0#00000000000029F2
(1620100660.005277) can0 1E02D2D0#0000000000000000
(1620100660.005423) can0 1E0312D0#0000000000000000
(1620100660.005570) can0 1E0352D0#0000000000000000
(1620100660.005717) can0 1E0392D0#0000000000000000
(1620100660.005864) can0 1E03D2D0#0000000000000000
(1620100660.006013) can0 1E0412D0#0000000000000000
(1620100660.006160) can0 1E0452D0#0000000000000000
(1620100660.006307) can0 1E0492D0#0000000000000000
(1620100660.006454) can0 1E04D2D0#0000000000000000
(1620100660.006600) can0 1E0512D0#0000000000000000
(1620100660.006747) can0 1E0552D0#0000000000000000
(1620100660.006894) can0 1E0592D0#0000000000000000
(1620100660.007041) can0 1E05D2D0#0000000000000000
(1620100660.007188) can0 1E0612D0#0000000000000000
(1620100660.007338) can0 1FF412D0#1100EEFF0001DC1F
(1620100660.007436) can0 1FF452D0#00024ECD00000000
(1620100660.013694) can0 1E0012D0#3D750E8B00054430
(1620100660.013855) can0 1E0052D0#000002B700000FA3
(1620100660.013953) can0 1E0092D0#00000000000004E3
(1620100660.014127) can0 1E00D2D0#00000ACB00000000
(1620100660.014274) can0 1E0112D0#00000E0A00000ACB
(1620100660.014372) can0 1E0152D0#00001A8100000ACB
(1620100660.014558) can0 1E0192D0#0000202B00000000
(1620100660.014707) can0 1E01D2D0#00005E9C00000000
(1620100660.014805) can0 1E0212D0#0000569300005852
(1620100660.014984) can0 1E0252D0#FFFFF3BD00000DC1
(1620100660.015132) can0 1E0292D0#00000000000029F3
(1620100660.015279) can0 1E02D2D0#0000000000000000
(1620100660.015426) can0 1E0312D0#0000000000000000
(1620100660.015573) can0 1E0352D0#0000000000000000
(1620100660.015720) can0 1E0392D0#0000000000000000
(1620100660.015867) can0 1E03D2D0#0000000000000000
(1620100660.016015) can0 1E0412D0#0000000000000000
(1620100660.016162) can0 1E0452D0#0000000000000000
(1620100660.016310) can0 1E0492D0#0000000000000000
(1620100660.016457) can0 1E04D2D0#0000000000000000
(1620100660.016604) can0 1E0512D0#0000000000000000
(1620100660.016750) can0 1E0552D0#0000000000000000
(1620100660.016897) can0 1E0592D0#0000000000000000
(1620100660.017043) can0 1E05D2D0#0000000000000000
(1620100660.017190) can0 1E0612D0#0000000000000000
(1620100660.017338) can0 1FF412D0#1100EEFF0001DC1F
(1620100660.017436) can0 1FF452D0#00024ECD00000000
(1620100660.023695) can0 1E0012D0#3D750E9500054502
(1620100660.023859) can0 1E0052D0#000002B600000F9F
(1620100660.023957) can0 1E0092D0#00000000000004E1
(1620100660.024128) can0 1E00D2D0#00000AB300000000
(1620100660.024276) can0 1E0112D0#00000E0A00000AB3
(1620100660.024373) can0 1E0152D0#00001A8D00000AB3
(1620100660.024557) can0 1E0192D0#0000202000000000
(1620100660.024706) can0 1E01D2D0#00005E9700000000
(1620100660.024804) can0 1E0212D0#0000569300005851
(1620100660.024986) can0 1E0252D0#FFFFF3BC00000DC1
(1620100660.025133) can0 1E0292D0#00000000000029EE
(1620100660.025288) can0 1E02D2D0#0000000000000000
(1620100660.025386) can0 1E0312D0#0000000000000000
(1620100660.025570) can0 1E0352D0#0000000000000000
(1620100660.025718) can0 1E0392D0#0000000000000000
(1620100660.025865) can0 1E03D2D0#0000000000000000
(1620100660.026014) can0 1E0412D0#0000000000000000
(1620100660.026161) can0 1E0452D0#0000000000000000
(1620100660.026308) can0 1E0492D0#0000000000000000
(1620100660.026455) can0 1E04D2D0#0000000000000000
(1620100660.026602) can0 1E0512D0#0000000000000000
(1620100660.026748) can0 1E0552D0#0000000000000000
(1620100660.026895) can0 1E0592D0#0000000000000000
(1620100660.027042) can0 1E05D2D0#0000000000000000
(1620100660.027189) can0 1E0612D0#0000000000000000
(1620100660.027337) can0 1FF412D0#1100EEFF0001DC1F
(1620100660.027436) can0 1FF452D0#00024ECD00000000
(1620100660.033694) can0 1E0012D0#3D750E9F0005432D
(1620100660.033856) can0 1E0052D0#000002B700000F9F
(1620100660.033954) can0 1E0092D0#00000000000004E1
(1620100660.034129) can0 1E00D2D0#00000AC900000000
(1620100660.034278) can0 1E0112D0#00000E0A00000AC9
(1620100660.034376) can0 1E0152D0#00001A7D00000AC9
(1620100660.034559) can0 1E0192D0#0000202D00000000
(1620100660.034707) can0 1E01D2D0#00005E9C00000000
(1620100660.034805) can0 1E0212D0#0000569400005851
(1620100660.034985) can0 1E0252D0#FFFFF3BB00000DC6
(1620100660.035133) can0 1E0292D0#00000000000029F0
(1620100660.035280) can0 1E02D2D0#0000000000000000
(1620100660.035427) can0 1E0312D0#0000000000000000
(1620100660.035574) can0 1E0352D0#0000000000000000
(1620100660.035721) can0 1E0392D0#0000000000000000
(1620100660.035868) can0 1E03D2D0#0000000000000000
(1620100660.036016) can0 1E0412D0#0000000000000000
(1620100660.036163) can0 1E0452D0#0000000000000000
(1620100660.036309) can0 1E0492D0#0000000000000000
(1620100660.036457) can0 1E04D2D0#0000000000000000
(1620100660.036604) can0 1E0512D0#0000000000000000
(1620100660.036751) can0 1E0552D0#0000000000000000
(1620100660.036897) can0 1E0592D0#0000000000000000
(1620100660.037045) can0 1E05D2D0#0000000000000000
(1620100660.037193) can0 1E0612D0#0000000000000000
(1620100660.037342) can0 1FF412D0#1100EEFF0001DC1F
(1620100660.037440) can0 1FF452D0#00024ECD00000000
(1620100660.043694) can0 1E0012D0#3D750EA900054320
(1620100660.043855) can0 1E0052D0#000002AF00000F6B
(1620100660.043953) can0 1E0092D0#00000000000004D1
(1620100660.044126) can0 1E00D2D0#00000ABF00000000
(1620100660.044273) can0 1E0112D0#00000E0900000ABF
(1620100660.044371) can0 1E0152D0#00001ACC00000ABF
(1620100660.044556) can0 1E0192D0#00001FE100000000
(1620100660.044705) can0 1E01D2D0#00005E9A00000000
(1620100660.044803) can0 1E0212D0#0000569400005850
(1620100660.044982) can0 1E0252D0#FFFFF3B800000DC6
(1620100660.045129) can0 1E0292D0#00000000000029F2
(1620100660.045276) can0 1E02D2D0#0000000000000000
(1620100660.045423) can0 1E0312D0#0000000000000000
(1620100660.045570) can0 1E0352D0#0000000000000000
(1620100660.045717) can0 1E0392D0#0000000000000000
(1620100660.045863) can0 1E03D2D0#0000000000000000
(1620100660.046012) can0 1E0412D0#0000000000000000
(1620100660.046160) can0 1E0452D0#0000000000000000
(1620100660.046308) can0 1E0492D0#0000000000000000
(1620100660.046454) can0 1E04D2D0#0000000000000000
(1620100660.046601) can0 1E0512D0#0000000000000000
(1620100660.046748) can0 1E0552D0#0000000000000000
(1620100660.046895) can0 1E0592D0#0000000000000000
(1620100660.047042) can0 1E05D2D0#0000000000000000
(1620100660.047189) can0 1E0612D0#0000000000000000
(1620100660.047337) can0 1FF412D0#1100EEFF0001DC1F
(1620100660.047435) can0 1FF452D0#00024ECD00000000
(1620100660.053694) can0 1E0012D0#3D750EB300054250
(1620100660.053856) can0 1E0052D0#000002B300000F81
(1620100660.053955) can0 1E0092D0#00000000000004D8
(1620100660.054127) can0 1E00D2D0#00000ABC00000000
(1620100660.054274) can0 1E0112D0#00000E0A00000ABC
(1620100660.054372) can0 1E0152D0#00001AA000000ABC
(1620100660.054557) can0 1E0192D0#0000200B00000000
(1620100660.054706) can0 1E01D2D0#00005EA200000000
(1620100660.054804) can0 1E0212D0#0000569300005851
(1620100660.054983) can0 1E0252D0#FFFFF3B700000DCA
(1620100660.055132) can0 1E0292D0#00000000000029ED
(1620100660.055279) can0 1E02D2D0#0000000000000000
(1620100660.055426) can0 1E0312D0#0000000000000000
(1620100660.055572) can0 1E0352D0#0000000000000000
(1620100660.055719) can0 1E0392D0#0000000000000000
(1620100660.055866) can0 1E03D2D0#0000000000000000
(1620100660.056015) can0 1E0412D0#0000000000000000
(1620100660.056161) can0 1E0452D0#0000000000000000
(1620100660.056308) can0 1E0492D0#0000000000000000
(1620100660.056455) can0 1E04D2D0#0000000000000000
(1620100660.056602) can0 1E0512D0#0000000000000000
(1620100660.056748) can0 1E0552D0#0000000000000000
(1620100660.056895) can0 1E0592D0#0000000000000000
(1620100660.057042) can0 1E05D2D0#0000000000000000
(1620100660.057189) can0 1E0612D0#0000000000000000
(1620100660.057337) can0 1FF412D0#1100EEFF0001DC1F
(1620100660.057435) can0 1FF452D0#00024ECD00000000
(1620100660.063692) can0 1E0012D0#3D750EBD00054644
(1620100660.063855) can0 1E0052D0#000002B200000F89
(1620100660.063953) can0 1E0092D0#00000000000004DA
(1620100660.064123) can0 1E00D2D0#00000AC300000000
(1620100660.064271) can0 1E0112D0#00000E0A00000AC3
(1620100660.064368) can0 1E0152D0#00001AB900000AC3
(1620100660.064554) can0 1E0192D0#00001FF800000000
(1620100660.064703) can0 1E01D2D0#00005E9C00000000
(1620100660.064801) can0 1E0212D0#0000569300005850
(1620100660.064982) can0 1E0252D0#FFFFF3B700000DCA
(1620100660.065129) can0 1E0292D0#00000000000029EE
(1620100660.065276) can0 1E02D2D0#0000000000000000
(1620100660.065423) can0 1E0312D0#0000000000000000
(1620100660.065569) can0 1E0352D0#0000000000000000
(1620100660.065715) can0 1E0392D0#0000000000000000
(1620100660.065863) can0 1E03D2D0#0000000000000000
(1620100660.066011) can0 1E0412D0#0000000000000000
(1620100660.066158) can0 1E0452D0#0000000000000000
(1620100660.066305) can0 1E0492D0#0000000000000000
(1620100660.066452) can0 1E04D2D0#0000000000000000
(1620100660.066599) can0 1E0512D0#0000000000000000
(1620100660.066746) can0 1E0552D0#0000000000000000
(1620100660.066893) can0 1E0592D0#0000000000000000
(1620100660.067041) can0 1E05D2D0#0000000000000000
(1620100660.067188) can0 1E0612D0#0000000000000000
(1620100660.067336) can0 1FF412D0#1100EEFF0001DC1F
(1620100660.067434) can0 1FF452D0#00024ECD00000000
(1620100660.073693) can0 1E0012D0#3D750EC700054911
(1620100660.073853) can0 1E0052D0#000002B900000FBF
(1620100660.073952) can0 1E0092D0#00000000000004EB
(1620100660.074127) can0 1E00D2D0#00000AB700000000
(1620100660.074275) can0 1E0112D0#00000E0A00000AB7
(1620100660.074373) can0 1E0152D0#00001A8200000AB7
(1620100660.074557) can0 1E0192D0#0000203100000000
(1620100660.074706) can0 1E01D2D0#00005EA100000000
(1620100660.074804) can0 1E0212D0#0000569300005850
(1620100660.074982) can0 1E0252D0#FFFFF3B700000DC6
(1620100660.075130) can0 1E0292D0#00000000000029ED
(1620100660.075277) can0 1E02D2D0#0000000000000000
(1620100660.075424) can0 1E0312D0#0000000000000000
(1620100660.075571) can0 1E0352D0#0000000000000000
(1620100660.075718) can0 1E0392D0#0000000000000000
(1620100660.075865) can0 1E03D2D0#0000000000000000
(1620100660.076015) can0 1E0412D0#0000000000000000
(1620100660.076162) can0 1E0452D0#0000000000000000
(1620100660.076309) can0 1E0492D0#0000000000000000
(1620100660.076456) can0 1E04D2D0#0000000000000000
(1620100660.076603) can0 1E0512D0#0000000000000000
(1620100660.076750) can0 1E0552D0#0000000000000000
(1620100660.076896) can0 1E0592D0#0000000000000000
(1620100660.077043) can0 1E05D2D0#0000000000000000
(1620100660.077190) can0 1E0612D0#0000000000000000
(1620100660.077338) can0 1FF412D0#1100EEFF0001DC1F
(1620100660.077436) can0 1FF452D0#00024ECD00000000
(1620100660.083692) can0 1E0012D0#3D750ED100054911
(1620100660.083855) can0 1E0052D0#000002B500000FA3
(1620100660.083954) can0 1E0092D0#00000000000004E3
(1620100660.084125) can0 1E00D2D0#00000AC400000000
(1620100660.084273) can0 1E0112D0#00000E0A00000AC4
(1620100660.084370) can0 1E0152D0#00001AAB00000AC4
(1620100660.084553) can0 1E0192D0#0000200A00000000
(1620100660.084702) can0 1E01D2D0#00005E9900000000
(1620100660.084800) can0 1E0212D0#000056930000584D
(1620100660.084980) can0 1E0252D0#FFFFF3BB00000DC6
(1620100660.085127) can0 1E0292D0#00000000000029F0
(1620100660.085274) can0 1E02D2D0#0000000000000000
(1620100660.085421) can0 1E0312D0#0000000000000000
(1620100660.085567) can0 1E0352D0#0000000000000000
(1620100660.085714) can0 1E0392D0#0000000000000000
(1620100660.085861) can0 1E03D2D0#0000000000000000
(1620100660.086009) can0 1E0412D0#0000000000000000
(1620100660.086156) can0 1E0452D0#0000000000000000
(1620100660.086303) can0 1E0492D0#0000000000000000
(1620100660.086450) can0 1E04D2D0#0000000000000000
(1620100660.086596) can0 1E0512D0#0000000000000000
(1620100660.086744) can0 1E0552D0#0000000000000000
(1620100660.086890) can0 1E0592D0#0000000000000000
(1620100660.087037) can0 1E05D2D0#0000000000000000
(1620100660.087184) can0 1E0612D0#0000000000000000
(1620100660.087332) can0 1FF412D0#1100EEFF0001DC1F
(1620100660.087479) can0 1FF452D0#00024ECD00000000
(1620100660.093693) can0 1E0012D0#3D750EDB00054AA1
(1620100660.093853) can0 1E0052D0#000002B700000FB2
(1620100660.093953) can0 1E0092D0#00000000000004E7
(1620100660.094126) can0 1E00D2D0#00000ABE00000000
(1620100660.094274) can0 1E0112D0#00000E0A00000ABE
(1620100660.094372) can0 1E0152D0#00001AA300000ABE
(1620100660.094557) can0 1E0192D0#0000201400000000
(1620100660.094705) can0 1E01D2D0#00005E9E00000000
(1620100660.094803) can0 1E0212D0#000056930000584D
(1620100660.094984) can0 1E0252D0#FFFFF3BC00000DC1
(1620100660.095132) can0 1E0292D0#00000000000029F0
(1620100660.095279) can0 1E02D2D0#0000000000000000
(1620100660.095426) can0 1E0312D0#0000000000000000
(1620100660.095573) can0 1E0352D0#0000000000000000
(1620100660.095719) can0 1E0392D0#0000000000000000
(1620100660.095866) can0 1E03D2D0#0000000000000000
(1620100660.096014) can0 1E0412D0#0000000000000000
(1620100660.096161) can0 1E0452D0#0000000000000000
(1620100660.096308) can0 1E0492D0#0000000000000000
(1620100660.096455) can0 1E04D2D0#0000000000000000
(1620100660.096601) can0 1E0512D0#0000000000000000
(1620100660.096748) can0 1E0552D0#0000000000000000
(1620100660.096896) can0 1E0592D0#0000000000000000
(1620100660.097043) can0 1E05D2D0#0000000000000000
(1620100660.097190) can0 1E0612D0#0000000000000000
(1620100660.097339) can0 1FF412D0#1100EEFF0001DC1F
(1620100660.097485) can0 1FF452D0#00024ECD00000000
(1620100660.103692) can0 1E0012D0#3D750EE500054BEC
(1620100660.103852) can0 1E0052D0#000002B500000FA7
(1620100660.103950) can0 1E0092D0#00000000000004E4
(1620100660.104125) can0 1E00D2D0#00000AC500000000
(1620100660.104272) can0 1E0112D0#00000E0A00000AC5
(1620100660.104370) can0 1E0152D0#00001ABE00000AC5
(1620100660.104556) can0 1E0192D0#00001FFB00000000
(1620100660.104705) can0 1E01D2D0#00005E9600000000
(1620100660.104803) can0 1E0212D0#0000569300005859
(1620100660.104981) can0 1E0252D0#FFFFF3BD00000DC1
(1620100660.105128) can0 1E0292D0#00000000000029EE
(1620100660.105275) can0 1E02D2D0#0000000000000000
(1620100660.105422) can0 1E0312D0#0000000000000000
(1620100660.105568) can0 1E0352D0#0000000000000000
(1620100660.105716) can0 1E0392D0#0000000000000000
(1620100660.105864) can0 1E03D2D0#0000000000000000
(1620100660.106012) can0 1E0412D0#0000000000000000
(1620100660.106159) can0 1E0452D0#0000000000000000
(1620100660.106306) can0 1E0492D0#0000000000000000
(1620100660.106453) can0 1E04D2D0#0000000000000000
(1620100660.106599) can0 1E0512D0#0000000000000000
(1620100660.106746) can0 1E0552D0#0000000000000000
(1620100660.106893) can0 1E0592D0#0000000000000000
(1620100660.107040) can0 1E05D2D0#0000000000000000
(1620100660.107186) can0 1E0612D0#0000000000000000
(1620100660.107335) can0 1FF412D0#1100EEFF0001DC1F
(1620100660.107433) can0 1FF452D0#00024ECD00000000
(1620100660.113692) can0 1E0012D0#3D750EEF00054D39
(1620100660.113856) can0 1E0052D0#000002B400000FA8
(1620100660.113954) can0 1E0092D0#00000000000004E4
(1620100660.114126) can0 1E00D2D0#00000AB600000000
(1620100660.114274) can0 1E0112D0#00000E0A00000AB6
(1620100660.114372) can0 1E0152D0#00001AC900000AB6
(1620100660.114554) can0 1E0192D0#00001FF300000000
(1620100660.114703) can0 1E01D2D0#00005E9D00000000
(1620100660.114802) can0 1E0212D0#0000569300005859
(1620100660.114979) can0 1E0252D0#FFFFF3BD00000DC1
(1620100660.115127) can0 1E0292D0#00000000000029ED
(1620100660.115274) can0 1E02D2D0#0000000000000000
(1620100660.115421) can0 1E0312D0#0000000000000000
(1620100660.115568) can0 1E0352D0#0000000000000000
(1620100660.115715) can0 1E0392D0#0000000000000000
(1620100660.115862) can0 1E03D2D0#0000000000000000
(1620100660.116010) can0 1E0412D0#0000000000000000
(1620100660.116156) can0 1E0452D0#0000000000000000
(1620100660.116303) can0 1E0492D0#0000000000000000
(1620100660.116450) can0 1E04D2D0#0000000000000000
(1620100660.116597) can0 1E0512D0#0000000000000000
(1620100660.116744) can0 1E0552D0#0000000000000000
(1620100660.116891) can0 1E0592D0#0000000000000000
(1620100660.117038) can0 1E05D2D0#0000000000000000
(1620100660.117184) can0 1E0612D0#0000000000000000
(1620100660.117333) can0 1FF412D0#1100EEFF0001DC1F
(1620100660.117431) can0 1FF452D0#00024ECD00000000
(1620100660.123693) can0 1E0012D0#3D750EF9000549A6
(1620100660.123857) can0 1E0052D0#000002B500000F9F
(1620100660.123955) can0 1E0092D0#00000000000004E1
(1620100660.124125) can0 1E00D2D0#00000AC600000000
(1620100660.124272) can0 1E0112D0#00000E0A00000AC6
(1620100660.124370) can0 1E0152D0#00001AB400000AC6
(1620100660.124555) can0 1E0192D0#0000200200000000
(1620100660.124705) can0 1E01D2D0#00005E9700000000
(1620100660.124802) can0 1E0212D0#0000569300005856
(1620100660.124983) can0 1E0252D0#FFFFF3BC00000DC1
(1620100660.125130) can0 1E0292D0#00000000000029EB
(1620100660.125283) can0 1E02D2D0#0000000000000000
(1620100660.125381) can0 1E0312D0#0000000000000000
(1620100660.125568) can0 1E0352D0#0000000000000000
(1620100660.125716) can0 1E0392D0#0000000000000000
(1620100660.125862) can0 1E03D2D0#0000000000000000
(1620100660.126011) can0 1E0412D0#0000000000000000
(1620100660.126158) can0 1E0452D0#0000000000000000
(1620100660.126305) can0 1E0492D0#0000000000000000
(1620100660.126451) can0 1E04D2D0#0000000000000000
(1620100660.126599) can0 1E0512D0#0000000000000000
(1620100660.126747) can0 1E0552D0#0000000000000000
(1620100660.126894) can0 1E0592D0#0000000000000000
(1620100660.127041) can0 1E05D2D0#0000000000000000
(1620100660.127188) can0 1E0612D0#0000000000000000
(1620100660.127336) can0 1FF412D0#1100EEFF0001DC1F
(1620100660.127434) can0 1FF452D0#00024ECD00000000
(1620100660.133694) can0 1E0012D0#3D750F03000547D2
(1620100660.133855) can0 1E0052D0#000002AE00000F6C
(1620100660.133953) can0 1E0092D0#00000000000004D1
(1620100660.134123) can0 1E00D2D0#00000AC200000000
(1620100660.134271) can0 1E0112D0#00000E0900000AC2
(1620100660.134368) can0 1E0152D0#00001AF500000AC2
(1620100660.134556) can0 1E0192D0#00001FC100000000
(1620100660.134705) can0 1E01D2D0#00005EA200000000
(1620100660.134804) can0 1E0212D0#0000569400005856
(1620100660.134982) can0 1E0252D0#FFFFF3B800000DC7
(1620100660.135130) can0 1E0292D0#00000000000029E9
(1620100660.135277) can0 1E02D2D0#0000000000000000
(1620100660.135424) can0 1E0312D0#0000000000000000
(1620100660.135571) can0 1E0352D0#0000000000000000
(1620100660.135719) can0 1E0392D0#0000000000000000
(1620100660.135866) can0 1E03D2D0#0000000000000000
(1620100660.136015) can0 1E0412D0#0000000000000000
(1620100660.136162) can0 1E0452D0#0000000000000000
(1620100660.136309) can0 1E0492D0#0000000000000000
(1620100660.136456) can0 1E04D2D0#0000000000000000
(1620100660.136604) can0 1E0512D0#0000000000000000
(1620100660.136751) can0 1E0552D0#0000000000000000
(1620100660.136898) can0 1E0592D0#0000000000000000
(1620100660.137045) can0 1E05D2D0#0000000000000000
(1620100660.137191) can0 1E0612D0#0000000000000000
(1620100660.137291) can0 1FF412D0#1100EEFF0001DC1F
(1620100660.137472) can0 1FF452D0#00024ECD00000000
(1620100660.143690) can0 1E0012D0#3D750F0D0005459E
(1620100660.143840) can0 1E0052D0#000002B200000F83
(1620100660.143938) can0 1E0092D0#00000000000004D8
(1620100660.144123) can0 1E00D2D0#00000ABC00000000
(1620100660.144270) can0 1E0112D0#00000E0A00000ABC
(1620100660.144368) can0 1E0152D0#00001ABA00000ABC
(1620100660.144553) can0 1E0192D0#00001FF700000000
(1620100660.144703) can0 1E01D2D0#00005E9E00000000
(1620100660.144801) can0 1E0212D0#0000569400005854
(1620100660.144980) can0 1E0252D0#FFFFF3B600000DC7
(1620100660.145127) can0 1E0292D0#00000000000029E5
(1620100660.145275) can0 1E02D2D0#0000000000000000
(1620100660.145421) can0 1E0312D0#0000000000000000
(1620100660.145568) can0 1E0352D0#0000000000000000
(1620100660.145715) can0 1E0392D0#0000000000000000
(1620100660.145861) can0 1E03D2D0#0000000000000000
(1620100660.146010) can0 1E0412D0#0000000000000000
(1620100660.146157) can0 1E0452D0#0000000000000000
(1620100660.146304) can0 1E0492D0#0000000000000000
(1620100660.146451) can0 1E04D2D0#0000000000000000
(1620100660.146598) can0 1E0512D0#0000000000000000
(1620100660.146745) can0 1E0552D0#0000000000000000
(1620100660.146892) can0 1E0592D0#0000000000000000
(1620100660.147038) can0 1E05D2D0#0000000000000000
(1620100660.147185) can0 1E0612D0#0000000000000000
(1620100660.147334) can0 1FF412D0#1100EEFF0001DC1F
(1620100660.147431) can0 1FF452D0#00024ECD00000000
(1620100660.153691) can0 1E0012D0#3D750F17000548A4
(1620100660.153855) can0 1E0052D0#000002B200000F8C
(1620100660.153954) can0 1E0092D0#00000000000004DB
(1620100660.154123) can0 1E00D2D0#00000ACD00000000
(1620100660.154271) can0 1E0112D0#00000E0A00000ACD
(1620100660.154369) can0 1E0152D0#00001AC700000ACD
(1620100660.154553) can0 1E0192D0#00001FEE00000000
(1620100660.154702) can0 1E01D2D0#00005EA300000000
(1620100660.154800) can0 1E0212D0#0000569400005854
(1620100660.154980) can0 1E0252D0#FFFFF3B800000DC8
(1620100660.155127) can0 1E0292D0#00000000000029E9
(1620100660.155274) can0 1E02D2D0#0000000000000000
(1620100660.155421) can0 1E0312D0#0000000000000000
(1620100660.155568) can0 1E0352D0#0000000000000000
(1620100660.155715) can0 1E0392D0#0000000000000000
(1620100660.155862) can0 1E03D2D0#0000000000000000
(1620100660.156011) can0 1E0412D0#0000000000000000
(1620100660.156158) can0 1E0452D0#0000000000000000
(1620100660.156304) can0 1E0492D0#0000000000000000
(1620100660.156452) can0 1E04D2D0#0000000000000000
(1620100660.156600) can0 1E0512D0#0000000000000000
(1620100660.156747) can0 1E0552D0#0000000000000000
(1620100660.156894) can0 1E0592D0#0000000000000000
(1620100660.157041) can0 1E05D2D0#0000000000000000
(1620100660.157188) can0 1E0612D0#0000000000000000
(1620100660.157287) can0 1FF412D0#1100EEFF0001DC1F
(1620100660.157470) can0 1FF452D0#00024ECD00000000
(1620100660.163690) can0 1E0012D0#3D750F2100054ACB
(1620100660.163854) can0 1E0052D0#000002B700000FB7
(1620100660.163952) can0 1E0092D0#00000000000004E9
(1620100660.164121) can0 1E00D2D0#00000ABD00000000
(1620100660.164268) can0 1E0112D0#00000E0A00000ABD
(1620100660.164366) can0 1E0152D0#00001A9900000ABD
(1620100660.164549) can0 1E0192D0#0000201D00000000
(1620100660.164698) can0 1E01D2D0#00005E9A00000000
(1620100660.164796) can0 1E0212D0#0000569400005852
(1620100660.164977) can0 1E0252D0#FFFFF3B800000DC8
(1620100660.165124) can0 1E0292D0#00000000000029EF
(1620100660.165271) can0 1E02D2D0#0000000000000000
(1620100660.165418) can0 1E0312D0#0000000000000000
(1620100660.165566) can0 1E0352D0#0000000000000000
(1620100660.165713) can0 1E0392D0#0000000000000000
(1620100660.165860) can0 1E03D2D0#0000000000000000
(1620100660.166008) can0 1E0412D0#0000000000000000
(1620100660.166155) can0 1E0452D0#0000000000000000
(1620100660.166302) can0 1E0492D0#0000000000000000
(1620100660.166450) can0 1E04D2D0#0000000000000000
(1620100660.166596) can0 1E0512D0#0000000000000000
(1620100660.166743) can0 1E0552D0#0000000000000000
(1620100660.166889) can0 1E0592D0#0000000000000000
(1620100660.167036) can0 1E05D2D0#0000000000000000
(1620100660.167184) can0 1E0612D0#0000000000000000
(1620100660.167332) can0 1FF412D0#1100EEFF0001DC1F
(1620100660.167430) can0 1FF452D0#00024ECD00000000
(1620100660.173690) can0 1E0012D0#3D750F2B00054AC9
(1620100660.173854) can0 1E0052D0#000002B300000F9E
(1620100660.173952) can0 1E0092D0#00000000000004E1
(1620100660.174122) can0 1E00D2D0#00000AC900000000
(1620100660.174270) can0 1E0112D0#00000E0A00000AC9
(1620100660.174367) can0 1E0152D0#00001ABF00000AC9
(1620100660.174553) can0 1E0192D0#00001FF900000000
(1620100660.174702) can0 1E01D2D0#00005E9900000000
(1620100660.174800) can0 1E0212D0#0000569400005852
(1620100660.174981) can0 1E0252D0#FFFFF3BB00000DC8
(1620100660.175129) can0 1E0292D0#00000000000029EE
(1620100660.175276) can0 1E02D2D0#0000000000000000
(1620100660.175423) can0 1E0312D0#0000000000000000
(1620100660.175570) can0 1E0352D0#0000000000000000
(1620100660.175717) can0 1E0392D0#0000000000000000
(1620100660.175863) can0 1E03D2D0#0000000000000000
(1620100660.176012) can0 1E0412D0#0000000000000000
(1620100660.176159) can0 1E0452D0#0000000000000000
(1620100660.176306) can0 1E0492D0#0000000000000000
(1620100660.176453) can0 1E04D2D0#0000000000000000
(1620100660.176599) can0 1E0512D0#0000000000000000
(1620100660.176746) can0 1E0552D0#0000000000000000
(1620100660.176892) can0 1E0592D0#0000000000000000
(1620100660.177039) can0 1E05D2D0#0000000000000000
(1620100660.177186) can0 1E0612D0#0000000000000000
(1620100660.177335) can0 1FF412D0#1100EEFF0001DC1F
(1620100660.177434) can0 1FF452D0#00024ECD00000000
(1620100660.183691) can0 1E0012D0#3D750F3500054AC9
(1620100660.183854) can0 1E0052D0#000002B700000FB7
(1620100660.183952) can0 1E0092D0#00000000000004E9
(1620100660.184121) can0 1E00D2D0#00000AC500000000
(1620100660.184269) can0 1E0112D0#00000E0A00000AC5
(1620100660.184368) can0 1E0152D0#00001A9900000AC5
(1620100660.184552) can0 1E0192D0#0000201D00000000
(1620100660.184701) can0 1E01D2D0#00005E9600000000
(1620100660.184799) can0 1E0212D0#000056940000584E
(1620100660.184977) can0 1E0252D0#FFFFF3BC00000DC8
(1620100660.185124) can0 1E0292D0#00000000000029E8
(1620100660.185271) can0 1E02D2D0#0000000000000000
(1620100660.185418) can0 1E0312D0#0000000000000000
(1620100660.185565) can0 1E0352D0#0000000000000000
(1620100660.185712) can0 1E0392D0#0000000000000000
(1620100660.185859) can0 1E03D2D0#0000000000000000
(1620100660.186007) can0 1E0412D0#0000000000000000
(1620100660.186154) can0 1E0452D0#0000000000000000
(1620100660.186301) can0 1E0492D0#0000000000000000
(1620100660.186450) can0 1E04D2D0#0000000000000000
(1620100660.186597) can0 1E0512D0#0000000000000000
(1620100660.186744) can0 1E0552D0#0000000000000000
(1620100660.186891) can0 1E0592D0#0000000000000000
(1620100660.187038) can0 1E05D2D0#0000000000000000
(1620100660.187184) can0 1E0612D0#0000000000000000
(1620100660.187333) can0 1FF412D0#1100EEFF0001DC1F
(1620100660.187431) can0 1FF452D0#00024ECD00000000
(1620100660.193691) can0 1E0012D0#3D750F3F00054AD9
(1620100660.193855) can0 1E0052D0#000002B500000FA5
(1620100660.193953) can0 1E0092D0#00000000000004E3
(1620100660.194123) can0 1E00D2D0#00000AC600000000
(1620100660.194270) can0 1E0112D0#00000E0A00000AC6
(1620100660.194368) can0 1E0152D0#00001AB400000AC6
(1620100660.194554) can0 1E0192D0#0000200300000000
(1620100660.194703) can0 1E01D2D0#00005E9B00000000
(1620100660.194801) can0 1E0212D0#000056940000584E
(1620100660.194979) can0 1E0252D0#FFFFF3BB00000DC4
(1620100660.195126) can0 1E0292D0#00000000000029E8
(1620100660.195273) can0 1E02D2D0#0000000000000000
(1620100660.195421) can0 1E0312D0#0000000000000000
(1620100660.195568) can0 1E0352D0#0000000000000000
(1620100660.195715) can0 1E0392D0#0000000000000000
(1620100660.195862) can0 1E03D2D0#0000000000000000
(1620100660.196010) can0 1E0412D0#0000000000000000
(1620100660.196157) can0 1E0452D0#0000000000000000
(1620100660.196304) can0 1E0492D0#0000000000000000
(1620100660.196451) can0 1E04D2D0#0000000000000000
(1620100660.196598) can0 1E0512D0#0000000000000000
(1620100660.196744) can0 1E0552D0#0000000000000000
(1620100660.196891) can0 1E0592D0#0000000000000000
(1620100660.197038) can0 1E05D2D0#0000000000000000
(1620100660.197185) can0 1E0612D0#0000000000000000
(1620100660.197333) can0 1FF412D0#1100EEFF0001DC1F
(1620100660.197431) can0 1FF452D0#00024ECD00000000
(1620100660.203690) can0 1E0012D0#3D750F49000549DE
(1620100660.203838) can0 1E0052D0#000002B500000FA1
(1620100660.203985) can0 1E0092D0#00000000000004E2
(1620100660.204083) can0 1E00D2D0#00000AC100000000
(1620100660.204267) can0 1E0112D0#00000E0A00000AC1
(1620100660.204416) can0 1E0152D0#00001AB100000AC1
(1620100660.204514) can0 1E0192D0#0000200500000000
(1620100660.204702) can0 1E01D2D0#00005E8E00000000
(1620100660.204801) can0 1E0212D0#000056940000584C
(1620100660.204983) can0 1E0252D0#FFFFF3BD00000DC4
(1620100660.205130) can0 1E0292D0#00000000000029E7
(1620100660.205278) can0 1E02D2D0#0000000000000000
(1620100660.205424) can0 1E0312D0#0000000000000000
(1620100660.205571) can0 1E0352D0#0000000000000000
(1620100660.205718) can0 1E0392D0#0000000000000000
(1620100660.205865) can0 1E03D2D0#0000000000000000
(1620100660.206013) can0 1E0412D0#0000000000000000
(1620100660.206160) can0 1E0452D0#0000000000000000
(1620100660.206307) can0 1E0492D0#0000000000000000
(1620100660.206454) can0 1E04D2D0#0000000000000000
(1620100660.206601) can0 1E0512D0#0000000000000000
(1620100660.206747) can0 1E0552D0#0000000000000000
(1620100660.206894) can0 1E0592D0#0000000000000000
(1620100660.207041) can0 1E05D2D0#0000000000000000
(1620100660.207188) can0 1E0612D0#0000000000000000
(1620100660.207338) can0 1FF412D0#1100EEFF0001DC1F
(1620100660.207436) can0 1FF452D0#00024ECD00000000
(1620100660.213690) can0 1E0012D0#3D750F530005459D
(1620100660.213838) can0 1E0052D0#000002B200000F7E
(1620100660.213985) can0 1E0092D0#00000000000004D7
(1620100660.214083) can0 1E00D2D0#00000AC800000000
(1620100660.214265) can0 1E0112D0#00000E0A00000AC8
(1620100660.214413) can0 1E0152D0#00001ABF00000AC8
(1620100660.214511) can0 1E0192D0#00001FF100000000
(1620100660.214697) can0 1E01D2D0#00005E9600000000
(1620100660.214795) can0 1E0212D0#000056940000584B
(1620100660.214979) can0 1E0252D0#FFFFF3BB00000DC0
(1620100660.215126) can0 1E0292D0#00000000000029E4
(1620100660.215273) can0 1E02D2D0#0000000000000000
(1620100660.215419) can0 1E0312D0#0000000000000000
(1620100660.215566) can0 1E0352D0#0000000000000000
(1620100660.215713) can0 1E0392D0#0000000000000000
(1620100660.215860) can0 1E03D2D0#0000000000000000
(1620100660.216009) can0 1E0412D0#0000000000000000
(1620100660.216156) can0 1E0452D0#0000000000000000
(1620100660.216304) can0 1E0492D0#0000000000000000
(1620100660.216451) can0 1E04D2D0#0000000000000000
(1620100660.216598) can0 1E0512D0#0000000000000000
(1620100660.216745) can0 1E0552D0#0000000000000000
(1620100660.216892) can0 1E0592D0#0000000000000000
(1620100660.217039) can0 1E05D2D0#0000000000000000
(1620100660.217186) can0 1E0612D0#0000000000000000
(1620100660.217334) can0 1FF412D0#1100EEFF0001DC1F
(1620100660.217432) can0 1FF452D0#00024ECD00000000
(1620100660.223689) can0 1E0012D0#3D750F5D000542B8
(1620100660.223837) can0 1E0052D0#000002AC00000F4B
(1620100660.223984) can0 1E0092D0#00000000000004C7
(1620100660.224082) can0 1E00D2D0#00000ACD00000000
(1620100660.224263) can0 1E0112D0#00000E0900000ACD
(1620100660.224411) can0 1E0152D0#00001AF600000ACD
(1620100660.224509) can0 1E0192D0#00001FB900000000
(1620100660.224694) can0 1E01D2D0#00005E9100000000
(1620100660.224792) can0 1E0212D0#000056940000584B
(1620100660.224975) can0 1E0252D0#FFFFF3B900000DC0
(1620100660.225123) can0 1E0292D0#00000000000029E3
(1620100660.225271) can0 1E02D2D0#0000000000000000
(1620100660.225424) can0 1E0312D0#0000000000000000
(1620100660.225523) can0 1E0352D0#0000000000000000
(1620100660.225708) can0 1E0392D0#0000000000000000
(1620100660.225856) can0 1E03D2D0#0000000000000000
(1620100660.226004) can0 1E0412D0#0000000000000000
(1620100660.226151) can0 1E0452D0#0000000000000000
(1620100660.226298) can0 1E0492D0#0000000000000000
(1620100660.226445) can0 1E04D2D0#0000000000000000
(1620100660.226592) can0 1E0512D0#0000000000000000
(1620100660.226739) can0 1E0552D0#0000000000000000
(1620100660.226886) can0 1E0592D0#0000000000000000
(1620100660.227033) can0 1E05D2D0#0000000000000000
(1620100660.227180) can0 1E0612D0#0000000000000000
(1620100660.227329) can0 1FF412D0#1100EEFF0001DC1F
(1620100660.227427) can0 1FF452D0#00024ECD00000000
(1620100660.233689) can0 1E0012D0#3D750F670005401E
(1620100660.233837) can0 1E0052D0#000002AF00000F5F
(1620100660.233985) can0 1E0092D0#00000000000004CD
(1620100660.234083) can0 1E00D2D0#00000AC400000000
(1620100660.234264) can0 1E0112D0#00000E0900000AC4
(1620100660.234412) can0 1E0152D0#00001ABA00000AC4
(1620100660.234559) can0 1E0192D0#00001FEE00000000
(1620100660.234659) can0 1E01D2D0#00005E9600000000
(1620100660.234836) can0 1E0212D0#000056910000584C
(1620100660.234983) can0 1E0252D0#FFFFF3B800000DC5
(1620100660.235081) can0 1E0292D0#00000000000029E4
(1620100660.235269) can0 1E02D2D0#0000000000000000
(1620100660.235416) can0 1E0312D0#0000000000000000
(1620100660.235563) can0 1E0352D0#0000000000000000
(1620100660.235710) can0 1E0392D0#0000000000000000
(1620100660.235857) can0 1E03D2D0#0000000000000000
(1620100660.236005) can0 1E0412D0#0000000000000000
(1620100660.236152) can0 1E0452D0#0000000000000000
(1620100660.236299) can0 1E0492D0#0000000000000000
(1620100660.236446) can0 1E04D2D0#0000000000000000
(1620100660.236593) can0 1E0512D0#0000000000000000
(1620100660.236740) can0 1E0552D0#0000000000000000
(1620100660.236887) can0 1E0592D0#0000000000000000
(1620100660.237034) can0 1E05D2D0#0000000000000000
(1620100660.237182) can0 1E0612D0#0000000000000000
(1620100660.237331) can0 1FF412D0#1100EEFF0001DC1F
(1620100660.237428) can0 1FF452D0#00024ECD00000000
(1620100660.243689) can0 1E0012D0#3D750F71000543AF
(1620100660.243837) can0 1E0052D0#000002B100000F75
(1620100660.243935) can0 1E0092D0#00000000000004D4
(1620100660.244122) can0 1E00D2D0#00000AD600000000
(1620100660.244270) can0 1E0112D0#00000E0A00000AD6
(1620100660.244368) can0 1E0152D0#00001AB900000AD6
(1620100660.244553) can0 1E0192D0#00001FF400000000
(1620100660.244703) can0 1E01D2D0#00005E8C00000000
(1620100660.244801) can0 1E0212D0#000056910000584A
(1620100660.244982) can0 1E0252D0#FFFFF3B700000DC5
(1620100660.245129) can0 1E0292D0#00000000000029E3
(1620100660.245276) can0 1E02D2D0#0000000000000000
(1620100660.245423) can0 1E0312D0#0000000000000000
(1620100660.245570) can0 1E0352D0#0000000000000000
(1620100660.245717) can0 1E0392D0#0000000000000000
(1620100660.245864) can0 1E03D2D0#0000000000000000
(1620100660.246012) can0 1E0412D0#0000000000000000
(1620100660.246160) can0 1E0452D0#0000000000000000
(1620100660.246307) can0 1E0492D0#0000000000000000
(1620100660.246454) can0 1E04D2D0#0000000000000000
(1620100660.246601) can0 1E0512D0#0000000000000000
(1620100660.246748) can0 1E0552D0#0000000000000000
(1620100660.246894) can0 1E0592D0#0000000000000000
(1620100660.247041) can0 1E05D2D0#0000000000000000
(1620100660.247188) can0 1E0612D0#0000000000000000
(1620100660.247337) can0 1FF412D0#1100EEFF0001DC1F
(1620100660.247434) can0 1FF452D0#00024ECD00000000
(1620100660.253690) can0 1E0012D0#3D750F7B0005457D
(1620100660.253854) can0 1E0052D0#000002B700000FA5
(1620100660.253952) can0 1E0092D0#00000000000004E3
(1620100660.254124) can0 1E00D2D0#00000AC300000000
(1620100660.254272) can0 1E0112D0#00000E0A00000AC3
(1620100660.254369) can0 1E0152D0#00001A8100000AC3
(1620100660.254554) can0 1E0192D0#0000202C00000000
(1620100660.254703) can0 1E01D2D0#00005E9A00000000
(1620100660.254801) can0 1E0212D0#000056910000584A
(1620100660.254980) can0 1E0252D0#FFFFF3B800000DC7
(1620100660.255129) can0 1E0292D0#00000000000029E4
(1620100660.255276) can0 1E02D2D0#0000000000000000
(1620100660.255423) can0 1E0312D0#0000000000000000
(1620100660.255570) can0 1E0352D0#0000000000000000
(1620100660.255717) can0 1E0392D0#0000000000000000
(1620100660.255864) can0 1E03D2D0#0000000000000000
(1620100660.256012) can0 1E0412D0#0000000000000000
(1620100660.256159) can0 1E0452D0#0000000000000000
(1620100660.256306) can0 1E0492D0#0000000000000000
(1620100660.256453) can0 1E04D2D0#0000000000000000
(1620100660.256600) can0 1E0512D0#0000000000000000
(1620100660.256747) can0 1E0552D0#0000000000000000
(1620100660.256894) can0 1E0592D0#0000000000000000
(1620100660.257040) can0 1E05D2D0#0000000000000000
(1620100660.257187) can0 1E0612D0#0000000000000000
(1620100660.257335) can0 1FF412D0#1100EEFF0001DC1F
(1620100660.257433) can0 1FF452D0#00024ECD00000000
(1620100660.263690) can0 1E0012D0#3D750F850005465A
(1620100660.263840) can0 1E0052D0#000002B200000F8A
(1620100660.263939) can0 1E0092D0#00000000000004DB
(1620100660.264124) can0 1E00D2D0#00000AD000000000
(1620100660.264271) can0 1E0112D0#00000E0A00000AD0
(1620100660.264369) can0 1E0152D0#00001AB100000AD0
(1620100660.264556) can0 1E0192D0#0000200000000000
(1620100660.264705) can0 1E01D2D0#00005E9A00000000
(1620100660.264803) can0 1E0212D0#0000569100005849
(1620100660.264981) can0 1E0252D0#FFFFF3BA00000DC7
(1620100660.265129) can0 1E0292D0#00000000000029E8
(1620100660.265276) can0 1E02D2D0#0000000000000000
(1620100660.265423) can0 1E0312D0#0000000000000000
(1620100660.265570) can0 1E0352D0#0000000000000000
(1620100660.265717) can0 1E0392D0#0000000000000000
(1620100660.265863) can0 1E03D2D0#0000000000000000
(1620100660.266012) can0 1E0412D0#0000000000000000
(1620100660.266159) can0 1E0452D0#0000000000000000
(1620100660.266306) can0 1E0492D0#0000000000000000
(1620100660.266453) can0 1E04D2D0#0000000000000000
(1620100660.266599) can0 1E0512D0#0000000000000000
(1620100660.266747) can0 1E0552D0#0000000000000000
(1620100660.266894) can0 1E0592D0#0000000000000000
(1620100660.267042) can0 1E05D2D0#0000000000000000
(1620100660.267189) can0 1E0612D0#0000000000000000
(1620100660.267337) can0 1FF412D0#1100EEFF0001DC1F
(1620100660.267435) can0 1FF452D0#00024ECD00000000
(1620100660.273688) can0 1E0012D0#3D750F8F00054729
(1620100660.273836) can0 1E0052D0#000002B700000FAD
(1620100660.273983) can0 1E0092D0#00000000000004E6
(1620100660.274081) can0 1E00D2D0#00000ACF00000000
(1620100660.274264) can0 1E0112D0#00000E0A00000ACF
(1620100660.274412) can0 1E0152D0#00001A8400000ACF
(1620100660.274510) can0 1E0192D0#0000202C00000000
(1620100660.274694) can0 1E01D2D0#00005E9B00000000
(1620100660.274793) can0 1E0212D0#0000568900005849
(1620100660.274975) can0 1E0252D0#FFFFF3BB00000DC9
(1620100660.275123) can0 1E0292D0#00000000000029E7
(1620100660.275270) can0 1E02D2D0#0000000000000000
(1620100660.275416) can0 1E0312D0#0000000000000000
(1620100660.275564) can0 1E0352D0#0000000000000000
(1620100660.275711) can0 1E0392D0#0000000000000000
(1620100660.275857) can0 1E03D2D0#0000000000000000
(1620100660.276007) can0 1E0412D0#0000000000000000
(1620100660.276154) can0 1E0452D0#0000000000000000
(1620100660.276301) can0 1E0492D0#0000000000000000
(1620100660.276447) can0 1E04D2D0#0000000000000000
(1620100660.276594) can0 1E0512D0#0000000000000000
(1620100660.276741) can0 1E0552D0#0000000000000000
(1620100660.276888) can0 1E0592D0#0000000000000000
(1620100660.277034) can0 1E05D2D0#0000000000000000
(1620100660.277181) can0 1E0612D0#0000000000000000
(1620100660.277329) can0 1FF412D0#1100EEFF0001DC1F
(1620100660.277427) can0 1FF452D0#00024ECD00000000
(1620100660.283689) can0 1E0012D0#3D750F9900054729
(1620100660.283837) can0 1E0052D0#000002B400000F96
(1620100660.283985) can0 1E0092D0#00000000000004DF
(1620100660.284083) can0 1E00D2D0#00000AC900000000
(1620100660.284263) can0 1E0112D0#00000E0A00000AC9
(1620100660.284411) can0 1E0152D0#00001AA600000AC9
(1620100660.284557) can0 1E0192D0#0000200C00000000
(1620100660.284657) can0 1E01D2D0#00005E9300000000
(1620100660.284836) can0 1E0212D0#0000568900005849
(1620100660.284985) can0 1E0252D0#FFFFF3BD00000DC9
(1620100660.285083) can0 1E0292D0#00000000000029E9
(1620100660.285268) can0 1E02D2D0#0000000000000000
(1620100660.285415) can0 1E0312D0#0000000000000000
(1620100660.285562) can0 1E0352D0#0000000000000000
(1620100660.285709) can0 1E0392D0#0000000000000000
(1620100660.285856) can0 1E03D2D0#0000000000000000
(1620100660.286004) can0 1E0412D0#0000000000000000
(1620100660.286151) can0 1E0452D0#0000000000000000
(1620100660.286298) can0 1E0492D0#0000000000000000
(1620100660.286445) can0 1E04D2D0#0000000000000000
(1620100660.286592) can0 1E0512D0#0000000000000000
(1620100660.286739) can0 1E0552D0#0000000000000000
(1620100660.286885) can0 1E0592D0#0000000000000000
(1620100660.287032) can0 1E05D2D0#0000000000000000
(1620100660.287179) can0 1E0612D0#0000000000000000
(1620100660.287328) can0 1FF412D0#1100EEFF0001DC1F
(1620100660.287475) can0 1FF452D0#00024ECD00000000
(1620100660.293690) can0 1E0012D0#3D750FA300054764
(1620100660.293838) can0 1E0052D0#000002B600000FA1
(1620100660.293938) can0 1E0092D0#00000000000004E2
(1620100660.294120) can0 1E00D2D0#00000ACE00000000
(1620100660.294268) can0 1E0112D0#00000E0A00000ACE
(1620100660.294365) can0 1E0152D0#00001A9800000ACE
(1620100660.294549) can0 1E0192D0#0000201900000000
(1620100660.294698) can0 1E01D2D0#00005E9B00000000
(1620100660.294796) can0 1E0212D0#0000568B00005849
(1620100660.294975) can0 1E0252D0#FFFFF3BB00000DC2
(1620100660.295122) can0 1E0292D0#00000000000029EB
(1620100660.295268) can0 1E02D2D0#0000000000000000
(1620100660.295415) can0 1E0312D0#0000000000000000
(1620100660.295562) can0 1E0352D0#0000000000000000
(1620100660.295709) can0 1E0392D0#0000000000000000
(1620100660.295855) can0 1E03D2D0#0000000000000000
(1620100660.296004) can0 1E0412D0#0000000000000000
(1620100660.296150) can0 1E0452D0#0000000000000000
(1620100660.296297) can0 1E0492D0#0000000000000000
(1620100660.296444) can0 1E04D2D0#0000000000000000
(1620100660.296591) can0 1E0512D0#0000000000000000
(1620100660.296738) can0 1E0552D0#0000000000000000
(1620100660.296886) can0 1E0592D0#0000000000000000
(1620100660.297033) can0 1E05D2D0#0000000000000000
(1620100660.297180) can0 1E0612D0#0000000000000000
(1620100660.297328) can0 1FF412D0#1100EEFF0001DC1F
(1620100660.297426) can0 1FF452D0#00024ECD00000000
(1620100660.303688) can0 1E0012D0#3D750FAD000544C6
(1620100660.303836) can0 1E0052D0#000002AF00000F66
(1620100660.303984) can0 1E0092D0#00000000000004D0
(1620100660.304082) can0 1E00D2D0#00000ACC00000000
(1620100660.304263) can0 1E0112D0#00000E0900000ACC
(1620100660.304410) can0 1E0152D0#00001ADA00000ACC
(1620100660.304507) can0 1E0192D0#00001FD600000000
(1620100660.304694) can0 1E01D2D0#00005E9D00000000
(1620100660.304792) can0 1E0212D0#0000568B0000584A
(1620100660.304975) can0 1E0252D0#FFFFF3BB00000DC2
(1620100660.305122) can0 1E0292D0#00000000000029E9
(1620100660.305269) can0 1E02D2D0#0000000000000000
(1620100660.305416) can0 1E0312D0#0000000000000000
(1620100660.305562) can0 1E0352D0#0000000000000000
