(1620098111.027382) can0 1E0012D0#33EE863000000000
(1620098111.027487) can0 1E0052D0#00000E4D000015B9
(1620098111.027653) can0 1E0092D0#00000000000006C9
(1620098111.027805) can0 1E00D2D0#00001E0000000000
(1620098111.027903) can0 1E0112D0#00000D2900001E00
(1620098111.028082) can0 1E0152D0#00000F0000001E00
(1620098111.028233) can0 1E0192D0#0000556800000000
(1620098111.028384) can0 1E01D2D0#00004CBD00000000
(1620098111.028482) can0 1E0212D0#000056D300004DEF
(1620098111.028656) can0 1E0252D0#FFFFF39000000C27
(1620098111.028807) can0 1E0292D0#0000000000001D94
(1620098111.028958) can0 1E02D2D0#0000000000000000
(1620098111.029056) can0 1E0312D0#0000000000000000
(1620098111.029239) can0 1E0352D0#0000000000000000
(1620098111.029400) can0 1E0392D0#0000000000000000
(1620098111.029499) can0 1E03D2D0#0000000000000000
(1620098111.029686) can0 1E0412D0#0000000000000000
(1620098111.029837) can0 1E0452D0#0000000000000000
(1620098111.029988) can0 1E0492D0#0000000000000000
(1620098111.030086) can0 1E04D2D0#0000000000000000
(1620098111.030272) can0 1E0512D0#0000000000000000
(1620098111.030424) can0 1E0552D0#0000000000000000
(1620098111.030580) can0 1E0592D0#0000000000000000
(1620098111.030678) can0 1E05D2D0#0000000000000000
(1620098111.030861) can0 1E0612D0#0000000000000000
(1620098111.031011) can0 1FF412D0#1100EEFF0001DC1B
(1620098111.031110) can0 1FF452D0#00024D3800000000
(1620098111.037363) can0 1E0012D0#33EE863A00000000
(1620098111.037514) can0 1E0052D0#00000E4D000015B9
(1620098111.037612) can0 1E0092D0#00000000000006C9
(1620098111.037795) can0 1E00D2D0#00001E0000000000
(1620098111.037945) can0 1E0112D0#00000D2900001E00
(1620098111.038045) can0 1E0152D0#00000F0000001E00
(1620098111.038226) can0 1E0192D0#0000556900000000
(1620098111.038377) can0 1E01D2D0#00004CC400000000
(1620098111.038476) can0 1E0212D0#000056D300004DEE
(1620098111.038654) can0 1E0252D0#FFFFF39000000C27
(1620098111.038804) can0 1E0292D0#0000000000001D93
(1620098111.038955) can0 1E02D2D0#0000000000000000
(1620098111.039053) can0 1E0312D0#0000000000000000
(1620098111.039238) can0 1E0352D0#0000000000000000
(1620098111.039393) can0 1E0392D0#0000000000000000
(1620098111.039544) can0 1E03D2D0#0000000000000000
(1620098111.039643) can0 1E0412D0#0000000000000000
(1620098111.039829) can0 1E0452D0#0000000000000000
(1620098111.039980) can0 1E0492D0#0000000000000000
(1620098111.040131) can0 1E04D2D0#0000000000000000
(1620098111.040281) can0 1E0512D0#0000000000000000
(1620098111.040381) can0 1E0552D0#0000000000000000
(1620098111.040565) can0 1E0592D0#0000000000000000
(1620098111.040716) can0 1E05D2D0#0000000000000000
(1620098111.040867) can0 1E0612D0#0000000000000000
(1620098111.040965) can0 1FF412D0#1100EEFF0001DC1B
(1620098111.041145) can0 1FF452D0#00024D3800000000
(1620098111.047361) can0 1E0012D0#33EE864400000000
(1620098111.047512) can0 1E0052D0#00000E4E000015B9
(1620098111.047611) can0 1E0092D0#00000000000006CA
(1620098111.047794) can0 1E00D2D0#00001E0000000000
(1620098111.047944) can0 1E0112D0#00000D2900001E00
(1620098111.048043) can0 1E0152D0#00000F0000001E00
(1620098111.048226) can0 1E0192D0#0000556800000000
(1620098111.048379) can0 1E01D2D0#00004CC400000000
(1620098111.048477) can0 1E0212D0#000056D200004DED
(1620098111.048652) can0 1E0252D0#FFFFF39000000C28
(1620098111.048803) can0 1E0292D0#0000000000001D95
(1620098111.048954) can0 1E02D2D0#0000000000000000
(1620098111.049053) can0 1E0312D0#0000000000000000
(1620098111.049237) can0 1E0352D0#0000000000000000
(1620098111.049393) can0 1E0392D0#0000000000000000
(1620098111.049545) can0 1E03D2D0#0000000000000000
(1620098111.049643) can0 1E0412D0#0000000000000000
(1620098111.049828) can0 1E0452D0#0000000000000000
(1620098111.049979) can0 1E0492D0#0000000000000000
(1620098111.050130) can0 1E04D2D0#0000000000000000
(1620098111.050280) can0 1E0512D0#0000000000000000
(1620098111.050379) can0 1E0552D0#0000000000000000
(1620098111.050566) can0 1E0592D0#0000000000000000
(1620098111.050717) can0 1E05D2D0#0000000000000000
(1620098111.050868) can0 1E0612D0#0000000000000000
(1620098111.050966) can0 1FF412D0#1100EEFF0001DC1B
(1620098111.051145) can0 1FF452D0#00024D3800000000
(1620098111.057362) can0 1E0012D0#33EE864E00000000
(1620098111.057513) can0 1E0052D0#00000E4E000015B9
(1620098111.057611) can0 1E0092D0#00000000000006CA
(1620098111.057794) can0 1E00D2D0#00001E0000000000
(1620098111.057945) can0 1E0112D0#00000D2900001E00
(1620098111.058044) can0 1E0152D0#00000F0000001E00
(1620098111.058225) can0 1E0192D0#0000556900000000
(1620098111.058376) can0 1E01D2D0#00004CC300000000
(1620098111.058474) can0 1E0212D0#000056D200004DEC
(1620098111.058653) can0 1E0252D0#FFFFF39000000C28
(1620098111.058804) can0 1E0292D0#0000000000001D92
(1620098111.058954) can0 1E02D2D0#0000000000000000
(1620098111.059053) can0 1E0312D0#0000000000000000
(1620098111.059238) can0 1E0352D0#0000000000000000
(1620098111.059390) can0 1E0392D0#0000000000000000
(1620098111.059543) can0 1E03D2D0#0000000000000000
(1620098111.059694) can0 1E0412D0#0000000000000000
(1620098111.059793) can0 1E0452D0#0000000000000000
(1620098111.059976) can0 1E0492D0#0000000000000000
(1620098111.060127) can0 1E04D2D0#0000000000000000
(1620098111.060279) can0 1E0512D0#0000000000000000
(1620098111.060430) can0 1E0552D0#0000000000000000
(1620098111.060529) can0 1E0592D0#0000000000000000
(1620098111.060712) can0 1E05D2D0#0000000000000000
(1620098111.060862) can0 1E0612D0#0000000000000000
(1620098111.061013) can0 1FF412D0#1100EEFF0001DC1B
(1620098111.061111) can0 1FF452D0#00024D3800000000
(1620098111.067363) can0 1E0012D0#33EE865800000000
(1620098111.067514) can0 1E0052D0#00000E4E000015B9
(1620098111.067612) can0 1E0092D0#00000000000006CA
(1620098111.067794) can0 1E00D2D0#00001E0000000000
(1620098111.067946) can0 1E0112D0#00000D2900001E00
(1620098111.068045) can0 1E0152D0#00000F0000001E00
(1620098111.068227) can0 1E0192D0#0000556800000000
(1620098111.068378) can0 1E01D2D0#00004CC500000000
(1620098111.068476) can0 1E0212D0#000056D200004DED
(1620098111.068652) can0 1E0252D0#FFFFF39000000C29
(1620098111.068802) can0 1E0292D0#0000000000001D91
(1620098111.068953) can0 1E02D2D0#0000000000000000
(1620098111.069052) can0 1E0312D0#0000000000000000
(1620098111.069238) can0 1E0352D0#0000000000000000
(1620098111.069390) can0 1E0392D0#0000000000000000
(1620098111.069542) can0 1E03D2D0#0000000000000000
(1620098111.069693) can0 1E0412D0#0000000000000000
(1620098111.069791) can0 1E0452D0#0000000000000000
(1620098111.069976) can0 1E0492D0#0000000000000000
(1620098111.070126) can0 1E04D2D0#0000000000000000
(1620098111.070279) can0 1E0512D0#0000000000000000
(1620098111.070429) can0 1E0552D0#0000000000000000
(1620098111.070528) can0 1E0592D0#0000000000000000
(1620098111.070711) can0 1E05D2D0#0000000000000000
(1620098111.070862) can0 1E0612D0#0000000000000000
(1620098111.071013) can0 1FF412D0#1100EEFF0001DC1B
(1620098111.071111) can0 1FF452D0#00024D3800000000
(1620098111.077362) can0 1E0012D0#33EE866200000000
(1620098111.077513) can0 1E0052D0#00000E4D000015B9
(1620098111.077611) can0 1E0092D0#00000000000006CA
(1620098111.077794) can0 1E00D2D0#00001E0000000000
(1620098111.077944) can0 1E0112D0#00000D2900001E00
(1620098111.078043) can0 1E0152D0#00000F0000001E00
(1620098111.078225) can0 1E0192D0#0000556900000000
(1620098111.078376) can0 1E01D2D0#00004CC600000000
(1620098111.078474) can0 1E0212D0#000056D200004DED
(1620098111.078652) can0 1E0252D0#FFFFF39000000C29
(1620098111.078803) can0 1E0292D0#0000000000001D95
(1620098111.078953) can0 1E02D2D0#0000000000000000
(1620098111.079052) can0 1E0312D0#0000000000000000
(1620098111.079235) can0 1E0352D0#0000000000000000
(1620098111.079393) can0 1E0392D0#0000000000000000
(1620098111.079492) can0 1E03D2D0#0000000000000000
(1620098111.079679) can0 1E0412D0#0000000000000000
(1620098111.079829) can0 1E0452D0#0000000000000000
(1620098111.079979) can0 1E0492D0#0000000000000000
(1620098111.080130) can0 1E04D2D0#0000000000000000
(1620098111.080228) can0 1E0512D0#0000000000000000
(1620098111.080419) can0 1E0552D0#0000000000000000
(1620098111.080570) can0 1E0592D0#0000000000000000
(1620098111.080720) can0 1E05D2D0#0000000000000000
(1620098111.080818) can0 1E0612D0#0000000000000000
(1620098111.080999) can0 1FF412D0#1100EEFF0001DC1B
(1620098111.081151) can0 1FF452D0#00024D3800000000
(1620098111.087363) can0 1E0012D0#33EE866C00000000
(1620098111.087514) can0 1E0052D0#00000E4E000015BA
(1620098111.087612) can0 1E0092D0#00000000000006CA
(1620098111.087794) can0 1E00D2D0#00001E0000000000
(1620098111.087945) can0 1E0112D0#00000D2900001E00
(1620098111.088043) can0 1E0152D0#00000F0000001E00
(1620098111.088225) can0 1E0192D0#0000556700000000
(1620098111.088377) can0 1E01D2D0#00004CC500000000
(1620098111.088475) can0 1E0212D0#000056D200004DEA
(1620098111.088651) can0 1E0252D0#FFFFF39000000C29
(1620098111.088803) can0 1E0292D0#0000000000001D95
(1620098111.088954) can0 1E02D2D0#0000000000000000
(1620098111.089052) can0 1E0312D0#0000000000000000
(1620098111.089236) can0 1E0352D0#0000000000000000
(1620098111.089390) can0 1E0392D0#0000000000000000
(1620098111.089542) can0 1E03D2D0#0000000000000000
(1620098111.089693) can0 1E0412D0#0000000000000000
(1620098111.089791) can0 1E0452D0#0000000000000000
(1620098111.089974) can0 1E0492D0#0000000000000000
(1620098111.090127) can0 1E04D2D0#0000000000000000
(1620098111.090278) can0 1E0512D0#0000000000000000
(1620098111.090377) can0 1E0552D0#0000000000000000
(1620098111.090582) can0 1E0592D0#0000000000000000
(1620098111.090682) can0 1E05D2D0#0000000000000000
(1620098111.090857) can0 1E0612D0#0000000000000000
(1620098111.091008) can0 1FF412D0#1100EEFF0001DC1B
(1620098111.091107) can0 1FF452D0#00024D3800000000
(1620098111.097361) can0 1E0012D0#33EE867600000000
(1620098111.097512) can0 1E0052D0#00000E4E000015BA
(1620098111.097610) can0 1E0092D0#00000000000006CA
(1620098111.097794) can0 1E00D2D0#00001E0000000000
(1620098111.097945) can0 1E0112D0#00000D2900001E00
(1620098111.098043) can0 1E0152D0#00000F0000001E00
(1620098111.098224) can0 1E0192D0#0000556700000000
(1620098111.098375) can0 1E01D2D0#00004CC400000000
(1620098111.098473) can0 1E0212D0#000056D200004DEA
(1620098111.098650) can0 1E0252D0#FFFFF39000000C29
(1620098111.098801) can0 1E0292D0#0000000000001D95
(1620098111.098952) can0 1E02D2D0#0000000000000000
(1620098111.099052) can0 1E0312D0#0000000000000000
(1620098111.099235) can0 1E0352D0#0000000000000000
(1620098111.099389) can0 1E0392D0#0000000000000000
(1620098111.099541) can0 1E03D2D0#0000000000000000
(1620098111.099639) can0 1E0412D0#0000000000000000
(1620098111.099826) can0 1E0452D0#0000000000000000
(1620098111.099977) can0 1E0492D0#0000000000000000
(1620098111.100130) can0 1E04D2D0#0000000000000000
(1620098111.100228) can0 1E0512D0#0000000000000000
(1620098111.100415) can0 1E0552D0#0000000000000000
(1620098111.100566) can0 1E0592D0#0000000000000000
(1620098111.100717) can0 1E05D2D0#0000000000000000
(1620098111.100868) can0 1E0612D0#0000000000000000
(1620098111.100967) can0 1FF412D0#1100EEFF0001DC1B
(1620098111.101142) can0 1FF452D0#00024D3800000000
(1620098111.107361) can0 1E0012D0#33EE868000000000
(1620098111.107512) can0 1E0052D0#00000E4E000015BA
(1620098111.107610) can0 1E0092D0#00000000000006CA
(1620098111.107793) can0 1E00D2D0#00001E0000000000
(1620098111.107944) can0 1E0112D0#00000D2900001E00
(1620098111.108043) can0 1E0152D0#00000F0000001E00
(1620098111.108224) can0 1E0192D0#0000556700000000
(1620098111.108376) can0 1E01D2D0#00004CC300000000
(1620098111.108475) can0 1E0212D0#000056D200004DEA
(1620098111.108652) can0 1E0252D0#FFFFF38F00000C29
(1620098111.108803) can0 1E0292D0#0000000000001D96
(1620098111.108954) can0 1E02D2D0#0000000000000000
(1620098111.109052) can0 1E0312D0#0000000000000000
(1620098111.109237) can0 1E0352D0#0000000000000000
(1620098111.109390) can0 1E0392D0#0000000000000000
(1620098111.109529) can0 1E03D2D0#0000000000000000
(1620098111.109668) can0 1E0412D0#0000000000000000
(1620098111.109834) can0 1E0452D0#0000000000000000
(1620098111.109973) can0 1E0492D0#0000000000000000
(1620098111.110111) can0 1E04D2D0#0000000000000000
(1620098111.110263) can0 1E0512D0#0000000000000000
(1620098111.110412) can0 1E0552D0#0000000000000000
(1620098111.110568) can0 1E0592D0#0000000000000000
(1620098111.110708) can0 1E05D2D0#0000000000000000
(1620098111.110861) can0 1E0612D0#0000000000000000
(1620098111.110962) can0 1FF412D0#1100EEFF0001DC1B
(1620098111.111145) can0 1FF452D0#00024D3800000000
(1620098111.117361) can0 1E0012D0#33EE868A00000000
(1620098111.117500) can0 1E0052D0#00000E4E000015BA
(1620098111.117638) can0 1E0092D0#00000000000006CA
(1620098111.117787) can0 1E00D2D0#00001E0000000000
(1620098111.117925) can0 1E0112D0#00000D2900001E00
(1620098111.118074) can0 1E0152D0#00000F0000001E00
(1620098111.118212) can0 1E0192D0#0000556800000000
(1620098111.118364) can0 1E01D2D0#00004CC100000000
(1620098111.118502) can0 1E0212D0#000056D200004DEA
(1620098111.118639) can0 1E0252D0#FFFFF38F00000C29
(1620098111.118788) can0 1E0292D0#0000000000001D97
(1620098111.118936) can0 1E02D2D0#0000000000000000
(1620098111.119076) can0 1E0312D0#0000000000000000
(1620098111.119256) can0 1E0352D0#0000000000000000
(1620098111.119355) can0 1E0392D0#0000000000000000
(1620098111.119528) can0 1E03D2D0#0000000000000000
(1620098111.119681) can0 1E0412D0#0000000000000000
(1620098111.119833) can0 1E0452D0#0000000000000000
(1620098111.119972) can0 1E0492D0#0000000000000000
(1620098111.120130) can0 1E04D2D0#0000000000000000
(1620098111.120265) can0 1E0512D0#0000000000000000
(1620098111.120417) can0 1E0552D0#0000000000000000
(1620098111.120569) can0 1E0592D0#0000000000000000
(1620098111.120706) can0 1E05D2D0#0000000000000000
(1620098111.120863) can0 1E0612D0#0000000000000000
(1620098111.120997) can0 1FF412D0#1100EEFF0001DC1B
(1620098111.121149) can0 1FF452D0#00024D3800000000
(1620098111.127362) can0 1E0012D0#33EE869400000000
(1620098111.127514) can0 1E0052D0#00000E4C000015B7
(1620098111.127613) can0 1E0092D0#00000000000006C9
(1620098111.127794) can0 1E00D2D0#00001E0000000000
(1620098111.127945) can0 1E0112D0#00000D2900001E00
(1620098111.128044) can0 1E0152D0#00000F0000001E00
(1620098111.128227) can0 1E0192D0#0000556800000000
(1620098111.128379) can0 1E01D2D0#00004CC300000000
(1620098111.128477) can0 1E0212D0#000056D200004DF3
(1620098111.128654) can0 1E0252D0#FFFFF39000000C2A
(1620098111.128806) can0 1E0292D0#0000000000001D96
(1620098111.128959) can0 1E02D2D0#0000000000000000
(1620098111.129057) can0 1E0312D0#0000000000000000
(1620098111.129239) can0 1E0352D0#0000000000000000
(1620098111.129390) can0 1E0392D0#0000000000000000
(1620098111.129542) can0 1E03D2D0#0000000000000000
(1620098111.129693) can0 1E0412D0#0000000000000000
(1620098111.129792) can0 1E0452D0#0000000000000000
(1620098111.129979) can0 1E0492D0#0000000000000000
(1620098111.130130) can0 1E04D2D0#0000000000000000
(1620098111.130282) can0 1E0512D0#0000000000000000
(1620098111.130380) can0 1E0552D0#0000000000000000
(1620098111.130570) can0 1E0592D0#0000000000000000
(1620098111.130722) can0 1E05D2D0#0000000000000000
(1620098111.130873) can0 1E0612D0#0000000000000000
(1620098111.130971) can0 1FF412D0#1100EEFF0001DC1B
(1620098111.131146) can0 1FF452D0#00024D3800000000
(1620098111.137361) can0 1E0012D0#33EE869E00000000
(1620098111.137512) can0 1E0052D0#00000E4C000015B7
(1620098111.137610) can0 1E0092D0#00000000000006C9
(1620098111.137793) can0 1E00D2D0#00001E0000000000
(1620098111.137946) can0 1E0112D0#00000D2900001E00
(1620098111.138044) can0 1E0152D0#00000F0000001E00
(1620098111.138226) can0 1E0192D0#0000556800000000
(1620098111.138379) can0 1E01D2D0#00004CBE00000000
(1620098111.138477) can0 1E0212D0#000056D200004DF3
(1620098111.138653) can0 1E0252D0#FFFFF39000000C2A
(1620098111.138804) can0 1E0292D0#0000000000001D94
(1620098111.138955) can0 1E02D2D0#0000000000000000
(1620098111.139053) can0 1E0312D0#0000000000000000
(1620098111.139236) can0 1E0352D0#0000000000000000
(1620098111.139497) can0 1E0392D0#0000000000000000
(1620098111.139596) can0 1E03D2D0#0000000000000000
(1620098111.139694) can0 1E0412D0#0000000000000000
(1620098111.139791) can0 1E0452D0#0000000000000000
(1620098111.139976) can0 1E0492D0#0000000000000000
(1620098111.140128) can0 1E04D2D0#0000000000000000
(1620098111.140280) can0 1E0512D0#0000000000000000
(1620098111.140378) can0 1E0552D0#0000000000000000
(1620098111.140564) can0 1E0592D0#0000000000000000
(1620098111.140716) can0 1E05D2D0#0000000000000000
(1620098111.140869) can0 1E0612D0#0000000000000000
(1620098111.140967) can0 1FF412D0#1100EEFF0001DC1B
(1620098111.141144) can0 1FF452D0#00024D3800000000
(1620098111.147361) can0 1E0012D0#33EE86A800000000
(1620098111.147512) can0 1E0052D0#00000E4C000015B7
(1620098111.147610) can0 1E0092D0#00000000000006C9
(1620098111.147794) can0 1E00D2D0#00001E0000000000
(1620098111.147945) can0 1E0112D0#00000D2900001E00
(1620098111.148043) can0 1E0152D0#00000F0000001E00
(1620098111.148226) can0 1E0192D0#0000556800000000
(1620098111.148377) can0 1E01D2D0#00004CBC00000000
(1620098111.148475) can0 1E0212D0#000056D300004DF2
(1620098111.148653) can0 1E0252D0#FFFFF39000000C29
(1620098111.148804) can0 1E0292D0#0000000000001D95
(1620098111.148955) can0 1E02D2D0#0000000000000000
(1620098111.149055) can0 1E0312D0#0000000000000000
(1620098111.149238) can0 1E0352D0#0000000000000000
(1620098111.149393) can0 1E0392D0#0000000000000000
(1620098111.149545) can0 1E03D2D0#0000000000000000
(1620098111.149643) can0 1E0412D0#0000000000000000
(1620098111.149829) can0 1E0452D0#0000000000000000
(1620098111.149980) can0 1E0492D0#0000000000000000
(1620098111.150132) can0 1E04D2D0#0000000000000000
(1620098111.150282) can0 1E0512D0#0000000000000000
(1620098111.150381) can0 1E0552D0#0000000000000000
(1620098111.150569) can0 1E0592D0#0000000000000000
(1620098111.150720) can0 1E05D2D0#0000000000000000
(1620098111.150871) can0 1E0612D0#0000000000000000
(1620098111.150969) can0 1FF412D0#1100EEFF0001DC1B
(1620098111.151145) can0 1FF452D0#00024D3800000000
(1620098111.157360) can0 1E0012D0#33EE86B200000000
(1620098111.157512) can0 1E0052D0#00000E4C000015B7
(1620098111.157610) can0 1E0092D0#00000000000006C9
(1620098111.157792) can0 1E00D2D0#00001E0000000000
(1620098111.157944) can0 1E0112D0#00000D2900001E00
(1620098111.158042) can0 1E0152D0#00000F0000001E00
(1620098111.158225) can0 1E0192D0#0000556800000000
(1620098111.158376) can0 1E01D2D0#00004CB800000000
(1620098111.158474) can0 1E0212D0#000056D300004DF2
(1620098111.158652) can0 1E0252D0#FFFFF38F00000C29
(1620098111.158805) can0 1E0292D0#0000000000001D94
(1620098111.158903) can0 1E02D2D0#0000000000000000
(1620098111.159088) can0 1E0312D0#0000000000000000
(1620098111.159239) can0 1E0352D0#0000000000000000
(1620098111.159391) can0 1E0392D0#0000000000000000
(1620098111.159542) can0 1E03D2D0#0000000000000000
(1620098111.159641) can0 1E0412D0#0000000000000000
(1620098111.159828) can0 1E0452D0#0000000000000000
(1620098111.159980) can0 1E0492D0#0000000000000000
(1620098111.160131) can0 1E04D2D0#0000000000000000
(1620098111.160229) can0 1E0512D0#0000000000000000
(1620098111.160416) can0 1E0552D0#0000000000000000
(1620098111.160567) can0 1E0592D0#0000000000000000
(1620098111.160718) can0 1E05D2D0#0000000000000000
(1620098111.160869) can0 1E0612D0#0000000000000000
(1620098111.160967) can0 1FF412D0#1100EEFF0001DC1B
(1620098111.161143) can0 1FF452D0#00024D3800000000
(1620098111.167359) can0 1E0012D0#33EE86BC00000000
(1620098111.167510) can0 1E0052D0#00000E4D000015B8
(1620098111.167608) can0 1E0092D0#00000000000006C9
(1620098111.167791) can0 1E00D2D0#00001E0000000000
(1620098111.167942) can0 1E0112D0#00000D2900001E00
(1620098111.168040) can0 1E0152D0#00000F0000001E00
(1620098111.168224) can0 1E0192D0#0000556900000000
(1620098111.168375) can0 1E01D2D0#00004CBD00000000
(1620098111.168473) can0 1E0212D0#000056D200004DF1
(1620098111.168650) can0 1E0252D0#FFFFF38F00000C2A
(1620098111.168801) can0 1E0292D0#0000000000001D95
(1620098111.168952) can0 1E02D2D0#0000000000000000
(1620098111.169051) can0 1E0312D0#0000000000000000
(1620098111.169235) can0 1E0352D0#0000000000000000
(1620098111.169389) can0 1E0392D0#0000000000000000
(1620098111.169541) can0 1E03D2D0#0000000000000000
(1620098111.169692) can0 1E0412D0#0000000000000000
(1620098111.169790) can0 1E0452D0#0000000000000000
(1620098111.169974) can0 1E0492D0#0000000000000000
(1620098111.170125) can0 1E04D2D0#0000000000000000
(1620098111.170276) can0 1E0512D0#0000000000000000
(1620098111.170427) can0 1E0552D0#0000000000000000
(1620098111.170531) can0 1E0592D0#0000000000000000
(1620098111.170708) can0 1E05D2D0#0000000000000000
(1620098111.170860) can0 1E0612D0#0000000000000000
(1620098111.171011) can0 1FF412D0#1100EEFF0001DC1B
(1620098111.171109) can0 1FF452D0#00024D3800000000
(1620098111.177360) can0 1E0012D0#33EE86C600000000
(1620098111.177511) can0 1E0052D0#00000E4C000015B8
(1620098111.177609) can0 1E0092D0#00000000000006C9
(1620098111.177791) can0 1E00D2D0#00001E0000000000
(1620098111.177942) can0 1E0112D0#00000D2900001E00
(1620098111.178040) can0 1E0152D0#00000F0000001E00
(1620098111.178222) can0 1E0192D0#0000556A00000000
(1620098111.178373) can0 1E01D2D0#00004CBA00000000
(1620098111.178471) can0 1E0212D0#000056D200004DF1
(1620098111.178650) can0 1E0252D0#FFFFF38F00000C2A
(1620098111.178800) can0 1E0292D0#0000000000001D95
(1620098111.178953) can0 1E02D2D0#0000000000000000
(1620098111.179051) can0 1E0312D0#0000000000000000
(1620098111.179235) can0 1E0352D0#0000000000000000
(1620098111.179389) can0 1E0392D0#0000000000000000
(1620098111.179541) can0 1E03D2D0#0000000000000000
(1620098111.179641) can0 1E0412D0#0000000000000000
(1620098111.179826) can0 1E0452D0#0000000000000000
(1620098111.179977) can0 1E0492D0#0000000000000000
(1620098111.180128) can0 1E04D2D0#0000000000000000
(1620098111.180279) can0 1E0512D0#0000000000000000
(1620098111.180377) can0 1E0552D0#0000000000000000
(1620098111.180565) can0 1E0592D0#0000000000000000
(1620098111.180717) can0 1E05D2D0#0000000000000000
(1620098111.180869) can0 1E0612D0#0000000000000000
(1620098111.180967) can0 1FF412D0#1100EEFF0001DC1B
(1620098111.181142) can0 1FF452D0#00024D3800000000
(1620098111.187361) can0 1E0012D0#33EE86D000000000
(1620098111.187513) can0 1E0052D0#00000E4D000015B8
(1620098111.187611) can0 1E0092D0#00000000000006C9
(1620098111.187792) can0 1E00D2D0#00001E0000000000
(1620098111.187943) can0 1E0112D0#00000D2900001E00
(1620098111.188042) can0 1E0152D0#00000F0000001E00
(1620098111.188223) can0 1E0192D0#0000556900000000
(1620098111.188374) can0 1E01D2D0#00004CB900000000
(1620098111.188473) can0 1E0212D0#000056D200004DF0
(1620098111.188651) can0 1E0252D0#FFFFF38F00000C2A
(1620098111.188802) can0 1E0292D0#0000000000001D96
(1620098111.188954) can0 1E02D2D0#0000000000000000
(1620098111.189052) can0 1E0312D0#0000000000000000
(1620098111.189236) can0 1E0352D0#0000000000000000
(1620098111.189389) can0 1E0392D0#0000000000000000
(1620098111.189541) can0 1E03D2D0#0000000000000000
(1620098111.189693) can0 1E0412D0#0000000000000000
(1620098111.189791) can0 1E0452D0#0000000000000000
(1620098111.189975) can0 1E0492D0#0000000000000000
(1620098111.190126) can0 1E04D2D0#0000000000000000
(1620098111.190277) can0 1E0512D0#0000000000000000
(1620098111.190428) can0 1E0552D0#0000000000000000
(1620098111.190530) can0 1E0592D0#0000000000000000
(1620098111.190710) can0 1E05D2D0#0000000000000000
(1620098111.190861) can0 1E0612D0#0000000000000000
(1620098111.191012) can0 1FF412D0#1100EEFF0001DC1B
(1620098111.191111) can0 1FF452D0#00024D3800000000
(1620098111.197360) can0 1E0012D0#33EE86DA00000000
(1620098111.197511) can0 1E0052D0#00000E4D000015B8
(1620098111.197611) can0 1E0092D0#00000000000006C9
(1620098111.197791) can0 1E00D2D0#00001E0000000000
(1620098111.197942) can0 1E0112D0#00000D2900001E00
(1620098111.198042) can0 1E0152D0#00000F0000001E00
(1620098111.198223) can0 1E0192D0#0000556A00000000
(1620098111.198374) can0 1E01D2D0#00004CC000000000
(1620098111.198472) can0 1E0212D0#000056D200004DF0
(1620098111.198652) can0 1E0252D0#FFFFF38F00000C2A
(1620098111.198803) can0 1E0292D0#0000000000001D94
(1620098111.198954) can0 1E02D2D0#0000000000000000
(1620098111.199052) can0 1E0312D0#0000000000000000
(1620098111.199236) can0 1E0352D0#0000000000000000
(1620098111.199389) can0 1E0392D0#0000000000000000
(1620098111.199541) can0 1E03D2D0#0000000000000000
(1620098111.199693) can0 1E0412D0#0000000000000000
(1620098111.199791) can0 1E0452D0#0000000000000000
(1620098111.199974) can0 1E0492D0#0000000000000000
(1620098111.200125) can0 1E04D2D0#0000000000000000
(1620098111.200276) can0 1E0512D0#0000000000000000
(1620098111.200429) can0 1E0552D0#0000000000000000
(1620098111.200529) can0 1E0592D0#0000000000000000
(1620098111.200710) can0 1E05D2D0#0000000000000000
(1620098111.200861) can0 1E0612D0#0000000000000000
(1620098111.201012) can0 1FF412D0#1100EEFF0001DC1B
(1620098111.201110) can0 1FF452D0#00024D3800000000
(1620098111.207359) can0 1E0012D0#33EE86E400000000
(1620098111.207511) can0 1E0052D0#00000E4D000015B9
(1620098111.207609) can0 1E0092D0#00000000000006CA
(1620098111.207791) can0 1E00D2D0#00001E0000000000
(1620098111.207942) can0 1E0112D0#00000D2900001E00
(1620098111.208041) can0 1E0152D0#00000F0000001E00
(1620098111.208222) can0 1E0192D0#0000556A00000000
(1620098111.208373) can0 1E01D2D0#00004CBF00000000
(1620098111.208471) can0 1E0212D0#000056D200004DED
(1620098111.208651) can0 1E0252D0#FFFFF38F00000C2A
(1620098111.208804) can0 1E0292D0#0000000000001D95
(1620098111.208956) can0 1E02D2D0#0000000000000000
(1620098111.209053) can0 1E0312D0#0000000000000000
(1620098111.209236) can0 1E0352D0#0000000000000000
(1620098111.209389) can0 1E0392D0#0000000000000000
(1620098111.209542) can0 1E03D2D0#0000000000000000
(1620098111.209641) can0 1E0412D0#0000000000000000
(1620098111.209827) can0 1E0452D0#0000000000000000
(1620098111.209979) can0 1E0492D0#0000000000000000
(1620098111.210130) can0 1E04D2D0#0000000000000000
(1620098111.210228) can0 1E0512D0#0000000000000000
(1620098111.210416) can0 1E0552D0#0000000000000000
(1620098111.210572) can0 1E0592D0#0000000000000000
(1620098111.210723) can0 1E05D2D0#0000000000000000
(1620098111.210821) can0 1E0612D0#0000000000000000
(1620098111.210999) can0 1FF412D0#1100EEFF0001DC1B
(1620098111.211152) can0 1FF452D0#00024D3800000000
(1620098111.217359) can0 1E0012D0#33EE86EE00000000
(1620098111.217511) can0 1E0052D0#00000E4D000015B9
(1620098111.217609) can0 1E0092D0#00000000000006CA
(1620098111.217790) can0 1E00D2D0#00001E0000000000
(1620098111.217942) can0 1E0112D0#00000D2900001E00
(1620098111.218040) can0 1E0152D0#00000F0000001E00
(1620098111.218222) can0 1E0192D0#0000556A00000000
(1620098111.218373) can0 1E01D2D0#00004CBF00000000
(1620098111.218473) can0 1E0212D0#000056D200004DED
(1620098111.218651) can0 1E0252D0#FFFFF38F00000C2A
(1620098111.218802) can0 1E0292D0#0000000000001D92
(1620098111.218953) can0 1E02D2D0#0000000000000000
(1620098111.219051) can0 1E0312D0#0000000000000000
(1620098111.219236) can0 1E0352D0#0000000000000000
(1620098111.219389) can0 1E0392D0#0000000000000000
(1620098111.219542) can0 1E03D2D0#0000000000000000
(1620098111.219640) can0 1E0412D0#0000000000000000
(1620098111.219827) can0 1E0452D0#0000000000000000
(1620098111.219978) can0 1E0492D0#0000000000000000
(1620098111.220129) can0 1E04D2D0#0000000000000000
(1620098111.220280) can0 1E0512D0#0000000000000000
(1620098111.220379) can0 1E0552D0#0000000000000000
(1620098111.220563) can0 1E0592D0#0000000000000000
(1620098111.220714) can0 1E05D2D0#0000000000000000
(1620098111.220866) can0 1E0612D0#0000000000000000
(1620098111.220964) can0 1FF412D0#1100EEFF0001DC1B
(1620098111.221143) can0 1FF452D0#00024D3800000000
(1620098111.227360) can0 1E0012D0#33EE86F800000000
(1620098111.227513) can0 1E0052D0#00000E4E000015B9
(1620098111.227611) can0 1E0092D0#00000000000006CA
(1620098111.227792) can0 1E00D2D0#00001E0000000000
(1620098111.227944) can0 1E0112D0#00000D2900001E00
(1620098111.228043) can0 1E0152D0#00000F0000001E00
(1620098111.228224) can0 1E0192D0#0000556900000000
(1620098111.228375) can0 1E01D2D0#00004CC600000000
(1620098111.228473) can0 1E0212D0#000056D100004DEC
(1620098111.228649) can0 1E0252D0#FFFFF38F00000C28
(1620098111.228800) can0 1E0292D0#0000000000001D92
(1620098111.228952) can0 1E02D2D0#0000000000000000
(1620098111.229050) can0 1E0312D0#0000000000000000
(1620098111.229235) can0 1E0352D0#0000000000000000
(1620098111.229389) can0 1E0392D0#0000000000000000
(1620098111.229541) can0 1E03D2D0#0000000000000000
(1620098111.229639) can0 1E0412D0#0000000000000000
(1620098111.229826) can0 1E0452D0#0000000000000000
(1620098111.229977) can0 1E0492D0#0000000000000000
(1620098111.230128) can0 1E04D2D0#0000000000000000
(1620098111.230281) can0 1E0512D0#0000000000000000
(1620098111.230380) can0 1E0552D0#0000000000000000
(1620098111.230561) can0 1E0592D0#0000000000000000
(1620098111.230713) can0 1E05D2D0#0000000000000000
(1620098111.230864) can0 1E0612D0#0000000000000000
(1620098111.230963) can0 1FF412D0#1100EEFF0001DC1B
(1620098111.231142) can0 1FF452D0#00024D3800000000
(1620098111.237360) can0 1E0012D0#33EE870200000000
(1620098111.237511) can0 1E0052D0#00000E4E000015B9
(1620098111.237609) can0 1E0092D0#00000000000006CA
(1620098111.237791) can0 1E00D2D0#00001E0000000000
(1620098111.237942) can0 1E0112D0#00000D2900001E00
(1620098111.238041) can0 1E0152D0#00000F0000001E00
(1620098111.238223) can0 1E0192D0#0000556A00000000
(1620098111.238374) can0 1E01D2D0#00004CC800000000
(1620098111.238473) can0 1E0212D0#000056D100004DEC
(1620098111.238651) can0 1E0252D0#FFFFF38F00000C28
(1620098111.238802) can0 1E0292D0#0000000000001D92
(1620098111.238954) can0 1E02D2D0#0000000000000000
(1620098111.239052) can0 1E0312D0#0000000000000000
(1620098111.239235) can0 1E0352D0#0000000000000000
(1620098111.239389) can0 1E0392D0#0000000000000000
(1620098111.239542) can0 1E03D2D0#0000000000000000
(1620098111.239639) can0 1E0412D0#0000000000000000
(1620098111.239826) can0 1E0452D0#0000000000000000
(1620098111.239977) can0 1E0492D0#0000000000000000
(1620098111.240129) can0 1E04D2D0#0000000000000000
(1620098111.240227) can0 1E0512D0#0000000000000000
(1620098111.240415) can0 1E0552D0#0000000000000000
(1620098111.240567) can0 1E0592D0#0000000000000000
(1620098111.240717) can0 1E05D2D0#0000000000000000
(1620098111.240868) can0 1E0612D0#0000000000000000
(1620098111.240968) can0 1FF412D0#1100EEFF0001DC1B
(1620098111.241142) can0 1FF452D0#00024D3800000000
(1620098111.247359) can0 1E0012D0#33EE870C00000000
(1620098111.247510) can0 1E0052D0#00000E4E000015BA
(1620098111.247608) can0 1E0092D0#00000000000006CA
(1620098111.247791) can0 1E00D2D0#00001E0000000000
(1620098111.247943) can0 1E0112D0#00000D2900001E00
(1620098111.248041) can0 1E0152D0#00000F0000001E00
(1620098111.248223) can0 1E0192D0#0000556900000000
(1620098111.248375) can0 1E01D2D0#00004CC900000000
(1620098111.248473) can0 1E0212D0#000056D100004DEC
(1620098111.248649) can0 1E0252D0#FFFFF38F00000C29
(1620098111.248800) can0 1E0292D0#0000000000001D93
(1620098111.248952) can0 1E02D2D0#0000000000000000
(1620098111.249050) can0 1E0312D0#0000000000000000
(1620098111.249232) can0 1E0352D0#0000000000000000
(1620098111.249389) can0 1E0392D0#0000000000000000
(1620098111.249541) can0 1E03D2D0#0000000000000000
(1620098111.249639) can0 1E0412D0#0000000000000000
(1620098111.249823) can0 1E0452D0#0000000000000000
(1620098111.249974) can0 1E0492D0#0000000000000000
(1620098111.250125) can0 1E04D2D0#0000000000000000
(1620098111.250276) can0 1E0512D0#0000000000000000
(1620098111.250375) can0 1E0552D0#0000000000000000
(1620098111.250560) can0 1E0592D0#0000000000000000
(1620098111.250711) can0 1E05D2D0#0000000000000000
(1620098111.250862) can0 1E0612D0#0000000000000000
(1620098111.250960) can0 1FF412D0#1100EEFF0001DC1B
(1620098111.251140) can0 1FF452D0#00024D3800000000
(1620098111.257358) can0 1E0012D0#33EE871600000000
(1620098111.257509) can0 1E0052D0#00000E4E000015BA
(1620098111.257607) can0 1E0092D0#00000000000006CA
(1620098111.257791) can0 1E00D2D0#00001E0000000000
(1620098111.257942) can0 1E0112D0#00000D2900001E00
(1620098111.258040) can0 1E0152D0#00000F0000001E00
(1620098111.258221) can0 1E0192D0#0000556900000000
(1620098111.258372) can0 1E01D2D0#00004CC700000000
(1620098111.258470) can0 1E0212D0#000056D100004DEC
(1620098111.258647) can0 1E0252D0#FFFFF38F00000C29
(1620098111.258798) can0 1E0292D0#0000000000001D90
(1620098111.258949) can0 1E02D2D0#0000000000000000
(1620098111.259048) can0 1E0312D0#0000000000000000
(1620098111.259231) can0 1E0352D0#0000000000000000
(1620098111.259388) can0 1E0392D0#0000000000000000
(1620098111.259539) can0 1E03D2D0#0000000000000000
(1620098111.259637) can0 1E0412D0#0000000000000000
(1620098111.259821) can0 1E0452D0#0000000000000000
(1620098111.259973) can0 1E0492D0#0000000000000000
(1620098111.260125) can0 1E04D2D0#0000000000000000
(1620098111.260225) can0 1E0512D0#0000000000000000
(1620098111.260411) can0 1E0552D0#0000000000000000
(1620098111.260563) can0 1E0592D0#0000000000000000
(1620098111.260714) can0 1E05D2D0#0000000000000000
(1620098111.260812) can0 1E0612D0#0000000000000000
(1620098111.260994) can0 1FF412D0#1100EEFF0001DC1B
(1620098111.261145) can0 1FF452D0#00024D3800000000
(1620098111.267359) can0 1E0012D0#33EE872000000000
(1620098111.267510) can0 1E0052D0#00000E4E000015BA
(1620098111.267609) can0 1E0092D0#00000000000006CA
(1620098111.267791) can0 1E00D2D0#00001E0000000000
(1620098111.267942) can0 1E0112D0#00000D2900001E00
(1620098111.268040) can0 1E0152D0#00000F0000001E00
(1620098111.268224) can0 1E0192D0#0000556800000000
(1620098111.268375) can0 1E01D2D0#00004CC300000000
(1620098111.268474) can0 1E0212D0#000056D100004DEB
(1620098111.268651) can0 1E0252D0#FFFFF38F00000C29
(1620098111.268802) can0 1E0292D0#0000000000001D91
(1620098111.268954) can0 1E02D2D0#0000000000000000
(1620098111.269052) can0 1E0312D0#0000000000000000
(1620098111.269237) can0 1E0352D0#0000000000000000
(1620098111.269392) can0 1E0392D0#0000000000000000
(1620098111.269544) can0 1E03D2D0#0000000000000000
(1620098111.269642) can0 1E0412D0#0000000000000000
(1620098111.269828) can0 1E0452D0#0000000000000000
(1620098111.269980) can0 1E0492D0#0000000000000000
(1620098111.270131) can0 1E04D2D0#0000000000000000
(1620098111.270229) can0 1E0512D0#0000000000000000
(1620098111.270435) can0 1E0552D0#0000000000000000
(1620098111.270535) can0 1E0592D0#0000000000000000
(1620098111.270711) can0 1E05D2D0#0000000000000000
(1620098111.270863) can0 1E0612D0#0000000000000000
(1620098111.270962) can0 1FF412D0#1100EEFF0001DC1B
(1620098111.271145) can0 1FF452D0#00024D3800000000
(1620098111.277356) can0 1E0012D0#33EE872A00000000
(1620098111.277507) can0 1E0052D0#00000E4E000015BA
(1620098111.277605) can0 1E0092D0#00000000000006CA
(1620098111.277788) can0 1E00D2D0#00001E0000000000
(1620098111.277940) can0 1E0112D0#00000D2900001E00
(1620098111.278038) can0 1E0152D0#00000F0000001E00
(1620098111.278220) can0 1E0192D0#0000556700000000
(1620098111.278372) can0 1E01D2D0#00004CC100000000
(1620098111.278470) can0 1E0212D0#000056D100004DEC
(1620098111.278648) can0 1E0252D0#FFFFF39000000C29
(1620098111.278799) can0 1E0292D0#0000000000001D92
(1620098111.278950) can0 1E02D2D0#0000000000000000
(1620098111.279048) can0 1E0312D0#0000000000000000
(1620098111.279235) can0 1E0352D0#0000000000000000
(1620098111.279389) can0 1E0392D0#0000000000000000
(1620098111.279541) can0 1E03D2D0#0000000000000000
(1620098111.279639) can0 1E0412D0#0000000000000000
(1620098111.279824) can0 1E0452D0#0000000000000000
(1620098111.279976) can0 1E0492D0#0000000000000000
(1620098111.280126) can0 1E04D2D0#0000000000000000
(1620098111.280278) can0 1E0512D0#0000000000000000
(1620098111.280376) can0 1E0552D0#0000000000000000
(1620098111.280567) can0 1E0592D0#0000000000000000
(1620098111.280712) can0 1E05D2D0#0000000000000000
(1620098111.280863) can0 1E0612D0#0000000000000000
(1620098111.280961) can0 1FF412D0#1100EEFF0001DC1B
(1620098111.281140) can0 1FF452D0#00024D3800000000
(1620098111.287356) can0 1E0012D0#33EE873400000000
(1620098111.287507) can0 1E0052D0#00000E4E000015BA
(1620098111.287607) can0 1E0092D0#00000000000006CA
(1620098111.287788) can0 1E00D2D0#00001E0000000000
(1620098111.287939) can0 1E0112D0#00000D2900001E00
(1620098111.288037) can0 1E0152D0#00000F0000001E00
(1620098111.288220) can0 1E0192D0#0000556700000000
(1620098111.288371) can0 1E01D2D0#00004CBF00000000
(1620098111.288469) can0 1E0212D0#000056D100004DEB
(1620098111.288649) can0 1E0252D0#FFFFF39000000C2A
(1620098111.288801) can0 1E0292D0#0000000000001D92
(1620098111.288952) can0 1E02D2D0#0000000000000000
(1620098111.289050) can0 1E0312D0#0000000000000000
(1620098111.289233) can0 1E0352D0#0000000000000000
(1620098111.289389) can0 1E0392D0#0000000000000000
(1620098111.289540) can0 1E03D2D0#0000000000000000
(1620098111.289639) can0 1E0412D0#0000000000000000
(1620098111.289824) can0 1E0452D0#0000000000000000
(1620098111.289977) can0 1E0492D0#0000000000000000
(1620098111.290129) can0 1E04D2D0#0000000000000000
(1620098111.290228) can0 1E0512D0#0000000000000000
(1620098111.290417) can0 1E0552D0#0000000000000000
(1620098111.290568) can0 1E0592D0#0000000000000000
(1620098111.290719) can0 1E05D2D0#0000000000000000
(1620098111.290818) can0 1E0612D0#0000000000000000
(1620098111.290996) can0 1FF412D0#1100EEFF0001DC1B
(1620098111.291148) can0 1FF452D0#00024D3800000000
(1620098111.297358) can0 1E0012D0#33EE873E00000000
(1620098111.297508) can0 1E0052D0#00000E4E000015BA
(1620098111.297607) can0 1E0092D0#00000000000006CA
(1620098111.297789) can0 1E00D2D0#00001E0000000000
(1620098111.297940) can0 1E0112D0#00000D2900001E00
(1620098111.298039) can0 1E0152D0#00000F0000001E00
(1620098111.298221) can0 1E0192D0#0000556900000000
(1620098111.298374) can0 1E01D2D0#00004CC500000000
(1620098111.298472) can0 1E0212D0#000056D100004DEB
(1620098111.298647) can0 1E0252D0#FFFFF39000000C2A
(1620098111.298798) can0 1E0292D0#0000000000001D93
(1620098111.298949) can0 1E02D2D0#0000000000000000
(1620098111.299049) can0 1E0312D0#0000000000000000
(1620098111.299231) can0 1E0352D0#0000000000000000
(1620098111.299388) can0 1E0392D0#0000000000000000
(1620098111.299487) can0 1E03D2D0#0000000000000000
(1620098111.299675) can0 1E0412D0#0000000000000000
(1620098111.299827) can0 1E0452D0#0000000000000000
(1620098111.299978) can0 1E0492D0#0000000000000000
(1620098111.300129) can0 1E04D2D0#0000000000000000
(1620098111.300227) can0 1E0512D0#0000000000000000
(1620098111.300411) can0 1E0552D0#0000000000000000
(1620098111.300562) can0 1E0592D0#0000000000000000
(1620098111.300715) can0 1E05D2D0#0000000000000000
(1620098111.300813) can0 1E0612D0#0000000000000000
(1620098111.300994) can0 1FF412D0#1100EEFF0001DC1B
(1620098111.301145) can0 1FF452D0#00024D3800000000
(1620098111.307357) can0 1E0012D0#33EE874800000000
(1620098111.307509) can0 1E0052D0#00000E4F000015BB
(1620098111.307607) can0 1E0092D0#00000000000006CA
(1620098111.307790) can0 1E00D2D0#00001E0000000000
(1620098111.307941) can0 1E0112D0#00000D2900001E00
(1620098111.308041) can0 1E0152D0#00000F0000001E00
(1620098111.308222) can0 1E0192D0#0000556900000000
(1620098111.308373) can0 1E01D2D0#00004CC500000000
(1620098111.308471) can0 1E0212D0#000056D100004DE8
(1620098111.308649) can0 1E0252D0#FFFFF39000000C27
(1620098111.308801) can0 1E0292D0#0000000000001D8F
(1620098111.308952) can0 1E02D2D0#0000000000000000
(1620098111.309052) can0 1E0312D0#0000000000000000
(1620098111.309235) can0 1E0352D0#0000000000000000
(1620098111.309389) can0 1E0392D0#0000000000000000
(1620098111.309541) can0 1E03D2D0#0000000000000000
(1620098111.309639) can0 1E0412D0#0000000000000000
(1620098111.309825) can0 1E0452D0#0000000000000000
(1620098111.309976) can0 1E0492D0#0000000000000000
(1620098111.310127) can0 1E04D2D0#0000000000000000
(1620098111.310279) can0 1E0512D0#0000000000000000
(1620098111.310381) can0 1E0552D0#0000000000000000
(1620098111.310562) can0 1E0592D0#0000000000000000
(1620098111.310713) can0 1E05D2D0#0000000000000000
(1620098111.310864) can0 1E0612D0#0000000000000000
(1620098111.310964) can0 1FF412D0#1100EEFF0001DC1B
(1620098111.311142) can0 1FF452D0#00024D3800000000
(1620098111.317357) can0 1E0012D0#33EE875200000000
(1620098111.317510) can0 1E0052D0#00000E4F000015BB
(1620098111.317608) can0 1E0092D0#00000000000006CA
(1620098111.317789) can0 1E00D2D0#00001E0000000000
(1620098111.317941) can0 1E0112D0#00000D2900001E00
(1620098111.318039) can0 1E0152D0#00000F0000001E00
(1620098111.318221) can0 1E0192D0#0000556900000000
(1620098111.318372) can0 1E01D2D0#00004CC200000000
(1620098111.318471) can0 1E0212D0#000056D100004DE9
(1620098111.318648) can0 1E0252D0#FFFFF39000000C27
(1620098111.318799) can0 1E0292D0#0000000000001D8E
(1620098111.318950) can0 1E02D2D0#0000000000000000
(1620098111.319049) can0 1E0312D0#0000000000000000
(1620098111.319232) can0 1E0352D0#0000000000000000
(1620098111.319388) can0 1E0392D0#0000000000000000
(1620098111.319528) can0 1E03D2D0#0000000000000000
(1620098111.319665) can0 1E0412D0#0000000000000000
(1620098111.319830) can0 1E0452D0#0000000000000000
(1620098111.319931) can0 1E0492D0#0000000000000000
(1620098111.320118) can0 1E04D2D0#0000000000000000
(1620098111.320256) can0 1E0512D0#0000000000000000
(1620098111.320405) can0 1E0552D0#0000000000000000
(1620098111.320554) can0 1E0592D0#0000000000000000
(1620098111.320693) can0 1E05D2D0#0000000000000000
(1620098111.320857) can0 1E0612D0#0000000000000000
(1620098111.320996) can0 1FF412D0#1100EEFF0001DC1B
(1620098111.321134) can0 1FF452D0#00024D3800000000
(1620098111.327358) can0 1E0012D0#33EE875C00000000
(1620098111.327497) can0 1E0052D0#00000E4E000015BA
(1620098111.327634) can0 1E0092D0#00000000000006CA
(1620098111.327783) can0 1E00D2D0#00001E0000000000
(1620098111.327922) can0 1E0112D0#00000D2900001E00
(1620098111.328070) can0 1E0152D0#00000F0000001E00
(1620098111.328224) can0 1E0192D0#0000556900000000
(1620098111.328364) can0 1E01D2D0#00004CBF00000000
(1620098111.328502) can0 1E0212D0#000056D200004DE9
(1620098111.328639) can0 1E0252D0#FFFFF39000000C28
(1620098111.328789) can0 1E0292D0#0000000000001D92
(1620098111.328929) can0 1E02D2D0#0000000000000000
(1620098111.329094) can0 1E0312D0#0000000000000000
(1620098111.329233) can0 1E0352D0#0000000000000000
(1620098111.329386) can0 1E0392D0#0000000000000000
(1620098111.329540) can0 1E03D2D0#0000000000000000
(1620098111.329692) can0 1E0412D0#0000000000000000
(1620098111.329790) can0 1E0452D0#0000000000000000
(1620098111.329973) can0 1E0492D0#0000000000000000
(1620098111.330125) can0 1E04D2D0#0000000000000000
(1620098111.330276) can0 1E0512D0#0000000000000000
(1620098111.330418) can0 1E0552D0#0000000000000000
(1620098111.330570) can0 1E0592D0#0000000000000000
(1620098111.330722) can0 1E05D2D0#0000000000000000
(1620098111.330820) can0 1E0612D0#0000000000000000
(1620098111.330998) can0 1FF412D0#1100EEFF0001DC1B
(1620098111.331149) can0 1FF452D0#00024D3800000000
(1620098111.337356) can0 1E0012D0#33EE876600000000
(1620098111.337507) can0 1E0052D0#00000E4E000015BA
(1620098111.337605) can0 1E0092D0#00000000000006CA
(1620098111.337787) can0 1E00D2D0#00001E0000000000
(1620098111.337940) can0 1E0112D0#00000D2900001E00
(1620098111.338038) can0 1E0152D0#00000F0000001E00
(1620098111.338219) can0 1E0192D0#0000556900000000
(1620098111.338371) can0 1E01D2D0#00004CC000000000
(1620098111.338469) can0 1E0212D0#000056D200004DEA
(1620098111.338647) can0 1E0252D0#FFFFF39000000C28
(1620098111.338798) can0 1E0292D0#0000000000001D8F
(1620098111.338951) can0 1E02D2D0#0000000000000000
(1620098111.339049) can0 1E0312D0#0000000000000000
(1620098111.339232) can0 1E0352D0#0000000000000000
(1620098111.339388) can0 1E0392D0#0000000000000000
(1620098111.339540) can0 1E03D2D0#0000000000000000
(1620098111.339638) can0 1E0412D0#0000000000000000
(1620098111.339823) can0 1E0452D0#0000000000000000
(1620098111.339974) can0 1E0492D0#0000000000000000
(1620098111.340125) can0 1E04D2D0#0000000000000000
(1620098111.340277) can0 1E0512D0#0000000000000000
(1620098111.340375) can0 1E0552D0#0000000000000000
(1620098111.340559) can0 1E0592D0#0000000000000000
(1620098111.340710) can0 1E05D2D0#0000000000000000
(1620098111.340863) can0 1E0612D0#0000000000000000
(1620098111.340961) can0 1FF412D0#1100EEFF0001DC1B
(1620098111.341139) can0 1FF452D0#00024D3800000000
(1620098111.347358) can0 1E0012D0#33EE877000000000
(1620098111.347508) can0 1E0052D0#00000E4E000015BA
(1620098111.347607) can0 1E0092D0#00000000000006CA
(1620098111.347788) can0 1E00D2D0#00001E0000000000
(1620098111.347939) can0 1E0112D0#00000D2900001E00
(1620098111.348037) can0 1E0152D0#00000F0000001E00
(1620098111.348220) can0 1E0192D0#0000556A00000000
(1620098111.348372) can0 1E01D2D0#00004CBF00000000
(1620098111.348470) can0 1E0212D0#000056D300004DEA
(1620098111.348648) can0 1E0252D0#FFFFF39000000C29
(1620098111.348800) can0 1E0292D0#0000000000001D8F
(1620098111.348951) can0 1E02D2D0#0000000000000000
(1620098111.349049) can0 1E0312D0#0000000000000000
(1620098111.349233) can0 1E0352D0#0000000000000000
(1620098111.349389) can0 1E0392D0#0000000000000000
(1620098111.349540) can0 1E03D2D0#0000000000000000
(1620098111.349640) can0 1E0412D0#0000000000000000
(1620098111.349825) can0 1E0452D0#0000000000000000
(1620098111.349976) can0 1E0492D0#0000000000000000
(1620098111.350127) can0 1E04D2D0#0000000000000000
(1620098111.350278) can0 1E0512D0#0000000000000000
(1620098111.350381) can0 1E0552D0#0000000000000000
(1620098111.350561) can0 1E0592D0#0000000000000000
(1620098111.350712) can0 1E05D2D0#0000000000000000
(1620098111.350863) can0 1E0612D0#0000000000000000
(1620098111.350961) can0 1FF412D0#1100EEFF0001DC1B
(1620098111.351140) can0 1FF452D0#00024D3800000000
(1620098111.357355) can0 1E0012D0#33EE877A00000000
(1620098111.357506) can0 1E0052D0#00000E4E000015BA
(1620098111.357604) can0 1E0092D0#00000000000006CA
(1620098111.357786) can0 1E00D2D0#00001E0000000000
(1620098111.357937) can0 1E0112D0#00000D2900001E00
(1620098111.358037) can0 1E0152D0#00000F0000001E00
(1620098111.358218) can0 1E0192D0#0000556900000000
(1620098111.358369) can0 1E01D2D0#00004CC400000000
(1620098111.358467) can0 1E0212D0#000056D300004DEA
(1620098111.358644) can0 1E0252D0#FFFFF39000000C29
(1620098111.358796) can0 1E0292D0#0000000000001D94
(1620098111.358947) can0 1E02D2D0#0000000000000000
(1620098111.359045) can0 1E0312D0#0000000000000000
(1620098111.359229) can0 1E0352D0#0000000000000000
(1620098111.359388) can0 1E0392D0#0000000000000000
(1620098111.359486) can0 1E03D2D0#0000000000000000
(1620098111.359672) can0 1E0412D0#0000000000000000
(1620098111.359823) can0 1E0452D0#0000000000000000
(1620098111.359974) can0 1E0492D0#0000000000000000
(1620098111.360126) can0 1E04D2D0#0000000000000000
(1620098111.360224) can0 1E0512D0#0000000000000000
(1620098111.360409) can0 1E0552D0#0000000000000000
(1620098111.360560) can0 1E0592D0#0000000000000000
(1620098111.360711) can0 1E05D2D0#0000000000000000
(1620098111.360809) can0 1E0612D0#0000000000000000
(1620098111.360991) can0 1FF412D0#1100EEFF0001DC1B
(1620098111.361143) can0 1FF452D0#00024D3800000000
(1620098111.367355) can0 1E0012D0#33EE878400000000
(1620098111.367507) can0 1E0052D0#00000E4E000015BA
(1620098111.367605) can0 1E0092D0#00000000000006CA
(1620098111.367787) can0 1E00D2D0#00001E0000000000
(1620098111.367938) can0 1E0112D0#00000D2900001E00
(1620098111.368036) can0 1E0152D0#00000F0000001E00
(1620098111.368219) can0 1E0192D0#0000556900000000
(1620098111.368370) can0 1E01D2D0#00004CC400000000
(1620098111.368468) can0 1E0212D0#000056D300004DEA
(1620098111.368644) can0 1E0252D0#FFFFF39000000C29
(1620098111.368797) can0 1E0292D0#0000000000001D94
(1620098111.368895) can0 1E02D2D0#0000000000000000
(1620098111.369082) can0 1E0312D0#0000000000000000
(1620098111.369233) can0 1E0352D0#0000000000000000
(1620098111.369389) can0 1E0392D0#0000000000000000
(1620098111.369487) can0 1E03D2D0#0000000000000000
(1620098111.369672) can0 1E0412D0#0000000000000000
(1620098111.369823) can0 1E0452D0#0000000000000000
(1620098111.369975) can0 1E0492D0#0000000000000000
(1620098111.370126) can0 1E04D2D0#0000000000000000
(1620098111.370224) can0 1E0512D0#0000000000000000
(1620098111.370408) can0 1E0552D0#0000000000000000
(1620098111.370559) can0 1E0592D0#0000000000000000
(1620098111.370712) can0 1E05D2D0#0000000000000000
(1620098111.370810) can0 1E0612D0#0000000000000000
(1620098111.370992) can0 1FF412D0#1100EEFF0001DC1B
(1620098111.371144) can0 1FF452D0#00024D3800000000
(1620098111.377356) can0 1E0012D0#33EE878E00000000
(1620098111.377508) can0 1E0052D0#00000E4E000015BA
(1620098111.377606) can0 1E0092D0#00000000000006CA
(1620098111.377788) can0 1E00D2D0#00001E0000000000
(1620098111.377939) can0 1E0112D0#00000D2900001E00
(1620098111.378037) can0 1E0152D0#00000F0000001E00
(1620098111.378219) can0 1E0192D0#0000556900000000
(1620098111.378370) can0 1E01D2D0#00004CC000000000
(1620098111.378469) can0 1E0212D0#000056D300004DEA
(1620098111.378646) can0 1E0252D0#FFFFF39000000C29
(1620098111.378797) can0 1E0292D0#0000000000001D91
(1620098111.378948) can0 1E02D2D0#0000000000000000
(1620098111.379046) can0 1E0312D0#0000000000000000
(1620098111.379232) can0 1E0352D0#0000000000000000
(1620098111.379388) can0 1E0392D0#0000000000000000
(1620098111.379542) can0 1E03D2D0#0000000000000000
(1620098111.379642) can0 1E0412D0#0000000000000000
(1620098111.379823) can0 1E0452D0#0000000000000000
(1620098111.379974) can0 1E0492D0#0000000000000000
(1620098111.380126) can0 1E04D2D0#0000000000000000
(1620098111.380224) can0 1E0512D0#0000000000000000
(1620098111.380412) can0 1E0552D0#0000000000000000
(1620098111.380558) can0 1E0592D0#0000000000000000
(1620098111.380716) can0 1E05D2D0#0000000000000000
(1620098111.380815) can0 1E0612D0#0000000000000000
(1620098111.380995) can0 1FF412D0#1100EEFF0001DC1B
(1620098111.381146) can0 1FF452D0#00024D3800000000
(1620098111.387355) can0 1E0012D0#33EE879800000000
(1620098111.387507) can0 1E0052D0#00000E4E000015BA
(1620098111.387605) can0 1E0092D0#00000000000006CA
(1620098111.387787) can0 1E00D2D0#00001E0000000000
(1620098111.387939) can0 1E0112D0#00000D2900001E00
(1620098111.388038) can0 1E0152D0#00000F0000001E00
(1620098111.388219) can0 1E0192D0#0000556900000000
(1620098111.388370) can0 1E01D2D0#00004CC500000000
(1620098111.388468) can0 1E0212D0#000056D200004DEA
(1620098111.388644) can0 1E0252D0#FFFFF39000000C29
(1620098111.388796) can0 1E0292D0#0000000000001D90
(1620098111.388947) can0 1E02D2D0#0000000000000000
(1620098111.389045) can0 1E0312D0#0000000000000000
(1620098111.389229) can0 1E0352D0#0000000000000000
(1620098111.389390) can0 1E0392D0#0000000000000000
(1620098111.389490) can0 1E03D2D0#0000000000000000
(1620098111.389672) can0 1E0412D0#0000000000000000
(1620098111.389823) can0 1E0452D0#0000000000000000
(1620098111.389974) can0 1E0492D0#0000000000000000
(1620098111.390126) can0 1E04D2D0#0000000000000000
(1620098111.390225) can0 1E0512D0#0000000000000000
(1620098111.390408) can0 1E0552D0#0000000000000000
(1620098111.390559) can0 1E0592D0#0000000000000000
(1620098111.390711) can0 1E05D2D0#0000000000000000
(1620098111.390862) can0 1E0612D0#0000000000000000
(1620098111.390960) can0 1FF412D0#1100EEFF0001DC1B
(1620098111.391136) can0 1FF452D0#00024D3800000000
(1620098111.397356) can0 1E0012D0#33EE87A200000000
(1620098111.397507) can0 1E0052D0#00000E4E000015BA
(1620098111.397607) can0 1E0092D0#00000000000006CA
(1620098111.397788) can0 1E00D2D0#00001E0000000000
(1620098111.397939) can0 1E0112D0#00000D2900001E00
(1620098111.398037) can0 1E0152D0#00000F0000001E00
(1620098111.398219) can0 1E0192D0#0000556900000000
(1620098111.398370) can0 1E01D2D0#00004CC800000000
(1620098111.398469) can0 1E0212D0#000056D200004DEA
(1620098111.398647) can0 1E0252D0#FFFFF39000000C29
(1620098111.398798) can0 1E0292D0#0000000000001D8F
(1620098111.398949) can0 1E02D2D0#0000000000000000
(1620098111.399048) can0 1E0312D0#0000000000000000
(1620098111.399231) can0 1E0352D0#0000000000000000
(1620098111.399389) can0 1E0392D0#0000000000000000
(1620098111.399487) can0 1E03D2D0#0000000000000000
(1620098111.399675) can0 1E0412D0#0000000000000000
(1620098111.399826) can0 1E0452D0#0000000000000000
(1620098111.399978) can0 1E0492D0#0000000000000000
(1620098111.400129) can0 1E04D2D0#0000000000000000
(1620098111.400227) can0 1E0512D0#0000000000000000
(1620098111.400411) can0 1E0552D0#0000000000000000
(1620098111.400563) can0 1E0592D0#0000000000000000
(1620098111.400715) can0 1E05D2D0#0000000000000000
(1620098111.400813) can0 1E0612D0#0000000000000000
(1620098111.400995) can0 1FF412D0#1100EEFF0001DC1B
(1620098111.401147) can0 1FF452D0#00024D3900000000
(1620098111.407356) can0 1E0012D0#33EE87AC00000000
(1620098111.407507) can0 1E0052D0#00000E4E000015BA
(1620098111.407606) can0 1E0092D0#00000000000006CA
(1620098111.407788) can0 1E00D2D0#00001E0000000000
(1620098111.407939) can0 1E0112D0#00000D2900001E00
(1620098111.408037) can0 1E0152D0#00000F0000001E00
(1620098111.408220) can0 1E0192D0#0000556900000000
(1620098111.408372) can0 1E01D2D0#00004CC600000000
(1620098111.408470) can0 1E0212D0#000056D200004DE9
(1620098111.408646) can0 1E0252D0#FFFFF39000000C2A
(1620098111.408797) can0 1E0292D0#0000000000001D8F
(1620098111.408948) can0 1E02D2D0#0000000000000000
(1620098111.409046) can0 1E0312D0#0000000000000000
(1620098111.409231) can0 1E0352D0#0000000000000000
(1620098111.409388) can0 1E0392D0#0000000000000000
(1620098111.409489) can0 1E03D2D0#0000000000000000
(1620098111.409674) can0 1E0412D0#0000000000000000
(1620098111.409825) can0 1E0452D0#0000000000000000
(1620098111.409977) can0 1E0492D0#0000000000000000
(1620098111.410128) can0 1E04D2D0#0000000000000000
(1620098111.410226) can0 1E0512D0#0000000000000000
(1620098111.410410) can0 1E0552D0#0000000000000000
(1620098111.410561) can0 1E0592D0#0000000000000000
(1620098111.410713) can0 1E05D2D0#0000000000000000
(1620098111.410864) can0 1E0612D0#0000000000000000
(1620098111.410962) can0 1FF412D0#1100EEFF0001DC1B
(1620098111.411136) can0 1FF452D0#00024D3900000000
(1620098111.417353) can0 1E0012D0#33EE87B600000000
(1620098111.417504) can0 1E0052D0#00000E4E000015BB
(1620098111.417603) can0 1E0092D0#00000000000006CA
(1620098111.417787) can0 1E00D2D0#00001E0000000000
(1620098111.417938) can0 1E0112D0#00000D2900001E00
(1620098111.418036) can0 1E0152D0#00000F0000001E00
(1620098111.418218) can0 1E0192D0#0000556800000000
(1620098111.418369) can0 1E01D2D0#00004CC300000000
(1620098111.418469) can0 1E0212D0#000056D200004DE9
(1620098111.418646) can0 1E0252D0#FFFFF39000000C2A
(1620098111.418797) can0 1E0292D0#0000000000001D8F
(1620098111.418948) can0 1E02D2D0#0000000000000000
(1620098111.419047) can0 1E0312D0#0000000000000000
(1620098111.419231) can0 1E0352D0#0000000000000000
(1620098111.419388) can0 1E0392D0#0000000000000000
(1620098111.419487) can0 1E03D2D0#0000000000000000
(1620098111.419675) can0 1E0412D0#0000000000000000
(1620098111.419826) can0 1E0452D0#0000000000000000
(1620098111.419977) can0 1E0492D0#0000000000000000
(1620098111.420130) can0 1E04D2D0#0000000000000000
(1620098111.420228) can0 1E0512D0#0000000000000000
(1620098111.420411) can0 1E0552D0#0000000000000000
(1620098111.420562) can0 1E0592D0#0000000000000000
(1620098111.420713) can0 1E05D2D0#0000000000000000
(1620098111.420864) can0 1E0612D0#0000000000000000
(1620098111.420962) can0 1FF412D0#1100EEFF0001DC1B
(1620098111.421136) can0 1FF452D0#00024D3900000000
(1620098111.427355) can0 1E0012D0#33EE87C000000000
(1620098111.427508) can0 1E0052D0#00000E4E000015BA
(1620098111.427606) can0 1E0092D0#00000000000006CA
(1620098111.427787) can0 1E00D2D0#00001E0000000000
(1620098111.427938) can0 1E0112D0#00000D2900001E00
(1620098111.428036) can0 1E0152D0#00000F0000001E00
(1620098111.428219) can0 1E0192D0#0000556A00000000
(1620098111.428370) can0 1E01D2D0#00004CC500000000
(1620098111.428470) can0 1E0212D0#000056D300004DEA
(1620098111.428644) can0 1E0252D0#FFFFF39000000C2A
(1620098111.428795) can0 1E0292D0#0000000000001D8E
(1620098111.428946) can0 1E02D2D0#0000000000000000
(1620098111.429044) can0 1E0312D0#0000000000000000
(1620098111.429229) can0 1E0352D0#0000000000000000
(1620098111.429388) can0 1E0392D0#0000000000000000
(1620098111.429486) can0 1E03D2D0#0000000000000000
(1620098111.429672) can0 1E0412D0#0000000000000000
(1620098111.429824) can0 1E0452D0#0000000000000000
(1620098111.429975) can0 1E0492D0#0000000000000000
(1620098111.430126) can0 1E04D2D0#0000000000000000
(1620098111.430224) can0 1E0512D0#0000000000000000
(1620098111.430408) can0 1E0552D0#0000000000000000
(1620098111.430560) can0 1E0592D0#0000000000000000
(1620098111.430711) can0 1E05D2D0#0000000000000000
(1620098111.430863) can0 1E0612D0#0000000000000000
(1620098111.430961) can0 1FF412D0#1100EEFF0001DC1B
(1620098111.431134) can0 1FF452D0#00024D3900000000
(1620098111.437355) can0 1E0012D0#33EE87CA00000000
(1620098111.437506) can0 1E0052D0#00000E4E000015BA
(1620098111.437604) can0 1E0092D0#00000000000006CA
(1620098111.437786) can0 1E00D2D0#00001E0000000000
(1620098111.437937) can0 1E0112D0#00000D2900001E00
(1620098111.438036) can0 1E0152D0#00000F0000001E00
(1620098111.438218) can0 1E0192D0#0000556900000000
(1620098111.438369) can0 1E01D2D0#00004CCA00000000
(1620098111.438468) can0 1E0212D0#000056D300004DE9
(1620098111.438644) can0 1E0252D0#FFFFF38F00000C2A
(1620098111.438795) can0 1E0292D0#0000000000001D8E
(1620098111.438946) can0 1E02D2D0#0000000000000000
(1620098111.439044) can0 1E0312D0#0000000000000000
(1620098111.439230) can0 1E0352D0#0000000000000000
(1620098111.439388) can0 1E0392D0#0000000000000000
(1620098111.439487) can0 1E03D2D0#0000000000000000
(1620098111.439672) can0 1E0412D0#0000000000000000
(1620098111.439824) can0 1E0452D0#0000000000000000
(1620098111.439976) can0 1E0492D0#0000000000000000
(1620098111.440074) can0 1E04D2D0#0000000000000000
(1620098111.440259) can0 1E0512D0#0000000000000000
(1620098111.440410) can0 1E0552D0#0000000000000000
(1620098111.440562) can0 1E0592D0#0000000000000000
(1620098111.440712) can0 1E05D2D0#0000000000000000
(1620098111.440811) can0 1E0612D0#0000000000000000
(1620098111.440991) can0 1FF412D0#1100EEFF0001DC1B
(1620098111.441142) can0 1FF452D0#00024D3900000000
(1620098111.447357) can0 1E0012D0#33EE87D400000000
(1620098111.447508) can0 1E0052D0#00000E4E000015BB
(1620098111.447607) can0 1E0092D0#00000000000006CA
(1620098111.447788) can0 1E00D2D0#00001E0000000000
(1620098111.447939) can0 1E0112D0#00000D2900001E00
(1620098111.448037) can0 1E0152D0#00000F0000001E00
(1620098111.448221) can0 1E0192D0#0000556800000000
(1620098111.448373) can0 1E01D2D0#00004CC700000000
(1620098111.448472) can0 1E0212D0#000056D100004DE9
(1620098111.448645) can0 1E0252D0#FFFFF38F00000C2B
(1620098111.448797) can0 1E0292D0#0000000000001D8F
(1620098111.448948) can0 1E02D2D0#0000000000000000
(1620098111.449046) can0 1E0312D0#0000000000000000
(1620098111.449230) can0 1E0352D0#0000000000000000
(1620098111.449388) can0 1E0392D0#0000000000000000
(1620098111.449487) can0 1E03D2D0#0000000000000000
(1620098111.449674) can0 1E0412D0#0000000000000000
(1620098111.449825) can0 1E0452D0#0000000000000000
(1620098111.449977) can0 1E0492D0#0000000000000000
(1620098111.450128) can0 1E04D2D0#0000000000000000
(1620098111.450231) can0 1E0512D0#0000000000000000
(1620098111.450410) can0 1E0552D0#0000000000000000
(1620098111.450561) can0 1E0592D0#0000000000000000
(1620098111.450712) can0 1E05D2D0#0000000000000000
(1620098111.450863) can0 1E0612D0#0000000000000000
(1620098111.450961) can0 1FF412D0#1100EEFF0001DC1B
(1620098111.451136) can0 1FF452D0#00024D3900000000
(1620098111.457355) can0 1E0012D0#33EE87DE00000000
(1620098111.457506) can0 1E0052D0#00000E4E000015BA
(1620098111.457605) can0 1E0092D0#00000000000006CA
(1620098111.457787) can0 1E00D2D0#00001E0000000000
(1620098111.457938) can0 1E0112D0#00000D2900001E00
(1620098111.458036) can0 1E0152D0#00000F0000001E00
(1620098111.458219) can0 1E0192D0#0000556800000000
(1620098111.458372) can0 1E01D2D0#00004CC400000000
(1620098111.458470) can0 1E0212D0#000056D100004DEA
(1620098111.458643) can0 1E0252D0#FFFFF39000000C2B
(1620098111.458795) can0 1E0292D0#0000000000001D8F
(1620098111.458945) can0 1E02D2D0#0000000000000000
(1620098111.459044) can0 1E0312D0#0000000000000000
(1620098111.459229) can0 1E0352D0#0000000000000000
(1620098111.459388) can0 1E0392D0#0000000000000000
(1620098111.459486) can0 1E03D2D0#0000000000000000
(1620098111.459673) can0 1E0412D0#0000000000000000
(1620098111.459824) can0 1E0452D0#0000000000000000
(1620098111.459975) can0 1E0492D0#0000000000000000
(1620098111.460126) can0 1E04D2D0#0000000000000000
(1620098111.460226) can0 1E0512D0#0000000000000000
(1620098111.460409) can0 1E0552D0#0000000000000000
(1620098111.460560) can0 1E0592D0#0000000000000000
(1620098111.460713) can0 1E05D2D0#0000000000000000
(1620098111.460811) can0 1E0612D0#0000000000000000
(1620098111.460992) can0 1FF412D0#1100EEFF0001DC1B
(1620098111.461143) can0 1FF452D0#00024D3900000000
(1620098111.467355) can0 1E0012D0#33EE87E800000000
(1620098111.467507) can0 1E0052D0#00000E4D000015B9
(1620098111.467605) can0 1E0092D0#00000000000006C9
(1620098111.467787) can0 1E00D2D0#00001E0000000000
(1620098111.467938) can0 1E0112D0#00000D2900001E00
(1620098111.468037) can0 1E0152D0#00000F0000001E00
(1620098111.468220) can0 1E0192D0#0000556800000000
(1620098111.468371) can0 1E01D2D0#00004CC300000000
(1620098111.468469) can0 1E0212D0#000056D100004DEE
(1620098111.468648) can0 1E0252D0#FFFFF38F00000C2A
(1620098111.468799) can0 1E0292D0#0000000000001D8F
(1620098111.468951) can0 1E02D2D0#0000000000000000
(1620098111.469051) can0 1E0312D0#0000000000000000
(1620098111.469234) can0 1E0352D0#0000000000000000
(1620098111.469389) can0 1E0392D0#0000000000000000
(1620098111.469540) can0 1E03D2D0#0000000000000000
(1620098111.469638) can0 1E0412D0#0000000000000000
(1620098111.469825) can0 1E0452D0#0000000000000000
(1620098111.469976) can0 1E0492D0#0000000000000000
(1620098111.470127) can0 1E04D2D0#0000000000000000
(1620098111.470277) can0 1E0512D0#0000000000000000
(1620098111.470376) can0 1E0552D0#0000000000000000
(1620098111.470560) can0 1E0592D0#0000000000000000
(1620098111.470711) can0 1E05D2D0#0000000000000000
(1620098111.470862) can0 1E0612D0#0000000000000000
(1620098111.470960) can0 1FF412D0#1100EEFF0001DC1B
(1620098111.471139) can0 1FF452D0#00024D3900000000
(1620098111.477354) can0 1E0012D0#33EE87F200000000
(1620098111.477507) can0 1E0052D0#00000E4D000015B9
(1620098111.477605) can0 1E0092D0#00000000000006C9
(1620098111.477785) can0 1E00D2D0#00001E0000000000
(1620098111.477937) can0 1E0112D0#00000D2900001E00
(1620098111.478035) can0 1E0152D0#00000F0000001E00
(1620098111.478217) can0 1E0192D0#0000556900000000
(1620098111.478368) can0 1E01D2D0#00004CC600000000
(1620098111.478467) can0 1E0212D0#000056D100004DEE
(1620098111.478644) can0 1E0252D0#FFFFF38F00000C2A
(1620098111.478795) can0 1E0292D0#0000000000001D90
(1620098111.478946) can0 1E02D2D0#0000000000000000
(1620098111.479045) can0 1E0312D0#0000000000000000
(1620098111.479228) can0 1E0352D0#0000000000000000
(1620098111.479387) can0 1E0392D0#0000000000000000
(1620098111.479486) can0 1E03D2D0#0000000000000000
(1620098111.479672) can0 1E0412D0#0000000000000000
(1620098111.479825) can0 1E0452D0#0000000000000000
(1620098111.479976) can0 1E0492D0#0000000000000000
(1620098111.480075) can0 1E04D2D0#0000000000000000
(1620098111.480259) can0 1E0512D0#0000000000000000
(1620098111.480410) can0 1E0552D0#0000000000000000
(1620098111.480568) can0 1E0592D0#0000000000000000
(1620098111.480667) can0 1E05D2D0#0000000000000000
(1620098111.480849) can0 1E0612D0#0000000000000000
(1620098111.481001) can0 1FF412D0#1100EEFF0001DC1B
(1620098111.481101) can0 1FF452D0#00024D3900000000
(1620098111.487354) can0 1E0012D0#33EE87FC00000000
(1620098111.487506) can0 1E0052D0#00000E4D000015B9
(1620098111.487604) can0 1E0092D0#00000000000006C9
(1620098111.487785) can0 1E00D2D0#00001E0000000000
(1620098111.487936) can0 1E0112D0#00000D2900001E00
(1620098111.488034) can0 1E0152D0#00000F0000001E00
(1620098111.488218) can0 1E0192D0#0000556900000000
(1620098111.488369) can0 1E01D2D0#00004CC600000000
(1620098111.488467) can0 1E0212D0#000056D100004DEE
(1620098111.488644) can0 1E0252D0#FFFFF38F00000C2A
(1620098111.488795) can0 1E0292D0#0000000000001D90
(1620098111.488946) can0 1E02D2D0#0000000000000000
(1620098111.489044) can0 1E0312D0#0000000000000000
(1620098111.489227) can0 1E0352D0#0000000000000000
(1620098111.489387) can0 1E0392D0#0000000000000000
(1620098111.489486) can0 1E03D2D0#0000000000000000
(1620098111.489671) can0 1E0412D0#0000000000000000
(1620098111.489822) can0 1E0452D0#0000000000000000
(1620098111.489974) can0 1E0492D0#0000000000000000
(1620098111.490127) can0 1E04D2D0#0000000000000000
(1620098111.490229) can0 1E0512D0#0000000000000000
(1620098111.490407) can0 1E0552D0#0000000000000000
(1620098111.490560) can0 1E0592D0#0000000000000000
(1620098111.490711) can0 1E05D2D0#0000000000000000
(1620098111.490809) can0 1E0612D0#0000000000000000
(1620098111.490990) can0 1FF412D0#1100EEFF0001DC1B
(1620098111.491142) can0 1FF452D0#00024D3900000000
(1620098111.497354) can0 1E0012D0#33EE880600000000
(1620098111.497505) can0 1E0052D0#00000E4D000015B9
(1620098111.497604) can0 1E0092D0#00000000000006C9
(1620098111.497786) can0 1E00D2D0#00001E0000000000
(1620098111.497937) can0 1E0112D0#00000D2900001E00
(1620098111.498035) can0 1E0152D0#00000F0000001E00
(1620098111.498218) can0 1E0192D0#0000556800000000
(1620098111.498370) can0 1E01D2D0#00004CC700000000
(1620098111.498468) can0 1E0212D0#000056D100004DEE
(1620098111.498645) can0 1E0252D0#FFFFF38F00000C2A
(1620098111.498796) can0 1E0292D0#0000000000001D90
(1620098111.498948) can0 1E02D2D0#0000000000000000
(1620098111.499048) can0 1E0312D0#0000000000000000
(1620098111.499229) can0 1E0352D0#0000000000000000
(1620098111.499388) can0 1E0392D0#0000000000000000
(1620098111.499487) can0 1E03D2D0#0000000000000000
(1620098111.499673) can0 1E0412D0#0000000000000000
(1620098111.499825) can0 1E0452D0#0000000000000000
(1620098111.499976) can0 1E0492D0#0000000000000000
(1620098111.500127) can0 1E04D2D0#0000000000000000
(1620098111.500226) can0 1E0512D0#0000000000000000
(1620098111.500409) can0 1E0552D0#0000000000000000
(1620098111.500560) can0 1E0592D0#0000000000000000
(1620098111.500712) can0 1E05D2D0#0000000000000000
(1620098111.500863) can0 1E0612D0#0000000000000000
(1620098111.500961) can0 1FF412D0#1100EEFF0001DC1B
(1620098111.501134) can0 1FF452D0#00024D3900000000
(1620098111.507356) can0 1E0012D0#33EE881000000000
(1620098111.507507) can0 1E0052D0#00000E4D000015B9
(1620098111.507605) can0 1E0092D0#00000000000006C9
(1620098111.507786) can0 1E00D2D0#00001E0000000000
(1620098111.507937) can0 1E0112D0#00000D2900001E00
(1620098111.508037) can0 1E0152D0#00000F0000001E00
(1620098111.508218) can0 1E0192D0#0000556700000000
(1620098111.508369) can0 1E01D2D0#00004CC900000000
(1620098111.508468) can0 1E0212D0#000056D100004DEE
(1620098111.508644) can0 1E0252D0#FFFFF38F00000C27
(1620098111.508795) can0 1E0292D0#0000000000001D90
(1620098111.508947) can0 1E02D2D0#0000000000000000
(1620098111.509045) can0 1E0312D0#0000000000000000
(1620098111.509227) can0 1E0352D0#0000000000000000
(1620098111.509390) can0 1E0392D0#0000000000000000
(1620098111.509490) can0 1E03D2D0#0000000000000000
(1620098111.509673) can0 1E0412D0#0000000000000000
(1620098111.509824) can0 1E0452D0#0000000000000000
(1620098111.509976) can0 1E0492D0#0000000000000000
(1620098111.510074) can0 1E04D2D0#0000000000000000
(1620098111.510264) can0 1E0512D0#0000000000000000
(1620098111.510415) can0 1E0552D0#0000000000000000
(1620098111.510566) can0 1E0592D0#0000000000000000
(1620098111.510664) can0 1E05D2D0#0000000000000000
(1620098111.510848) can0 1E0612D0#0000000000000000
(1620098111.511001) can0 1FF412D0#1100EEFF0001DC1B
(1620098111.511099) can0 1FF452D0#00024D3900000000
(1620098111.517352) can0 1E0012D0#33EE881A00000000
(1620098111.517503) can0 1E0052D0#00000E4D000015B9
(1620098111.517602) can0 1E0092D0#00000000000006C9
(1620098111.517784) can0 1E00D2D0#00001E0000000000
(1620098111.517935) can0 1E0112D0#00000D2900001E00
(1620098111.518034) can0 1E0152D0#00000F0000001E00
(1620098111.518215) can0 1E0192D0#0000556A00000000
(1620098111.518367) can0 1E01D2D0#00004CC500000000
(1620098111.518465) can0 1E0212D0#000056D100004DEE
(1620098111.518641) can0 1E0252D0#FFFFF38F00000C27
(1620098111.518792) can0 1E0292D0#0000000000001D91
(1620098111.518943) can0 1E02D2D0#0000000000000000
(1620098111.519041) can0 1E0312D0#0000000000000000
(1620098111.519227) can0 1E0352D0#0000000000000000
(1620098111.519387) can0 1E0392D0#0000000000000000
(1620098111.519486) can0 1E03D2D0#0000000000000000
(1620098111.519671) can0 1E0412D0#0000000000000000
(1620098111.519822) can0 1E0452D0#0000000000000000
(1620098111.519975) can0 1E0492D0#0000000000000000
(1620098111.520126) can0 1E04D2D0#0000000000000000
(1620098111.520224) can0 1E0512D0#0000000000000000
(1620098111.520409) can0 1E0552D0#0000000000000000
(1620098111.520561) can0 1E0592D0#0000000000000000
(1620098111.520712) can0 1E05D2D0#0000000000000000
(1620098111.520810) can0 1E0612D0#0000000000000000
(1620098111.520990) can0 1FF412D0#1100EEFF0001DC1B
(1620098111.521142) can0 1FF452D0#00024D3900000000
(1620098111.527352) can0 1E0012D0#33EE882400000000
(1620098111.527504) can0 1E0052D0#00000E4E000015B9
(1620098111.527602) can0 1E0092D0#00000000000006CA
(1620098111.527785) can0 1E00D2D0#00001E0000000000
(1620098111.527935) can0 1E0112D0#00000D2900001E00
(1620098111.528034) can0 1E0152D0#00000F0000001E00
(1620098111.528216) can0 1E0192D0#0000556A00000000
(1620098111.528367) can0 1E01D2D0#00004CC400000000
(1620098111.528465) can0 1E0212D0#000056D100004DED
(1620098111.528641) can0 1E0252D0#FFFFF38F00000C28
(1620098111.528794) can0 1E0292D0#0000000000001D92
(1620098111.528893) can0 1E02D2D0#0000000000000000
(1620098111.529079) can0 1E0312D0#0000000000000000
(1620098111.529230) can0 1E0352D0#0000000000000000
(1620098111.529388) can0 1E0392D0#0000000000000000
(1620098111.529487) can0 1E03D2D0#0000000000000000
(1620098111.529670) can0 1E0412D0#0000000000000000
(1620098111.529808) can0 1E0452D0#0000000000000000
(1620098111.529958) can0 1E0492D0#0000000000000000
(1620098111.530097) can0 1E04D2D0#0000000000000000
(1620098111.530265) can0 1E0512D0#0000000000000000
(1620098111.530403) can0 1E0552D0#0000000000000000
(1620098111.530541) can0 1E0592D0#0000000000000000
(1620098111.530690) can0 1E05D2D0#0000000000000000
(1620098111.530839) can0 1E0612D0#0000000000000000
(1620098111.530977) can0 1FF412D0#1100EEFF0001DC1B
(1620098111.531141) can0 1FF452D0#00024D3900000000
(1620098111.537352) can0 1E0012D0#33EE882E00000000
(1620098111.537491) can0 1E0052D0#00000E4E000015B9
(1620098111.537628) can0 1E0092D0#00000000000006CA
(1620098111.537777) can0 1E00D2D0#00001E0000000000
(1620098111.537917) can0 1E0112D0#00000D2900001E00
(1620098111.538065) can0 1E0152D0#00000F0000001E00
(1620098111.538203) can0 1E0192D0#0000556B00000000
(1620098111.538352) can0 1E01D2D0#00004CC600000000
(1620098111.538490) can0 1E0212D0#000056D100004DEC
(1620098111.538628) can0 1E0252D0#FFFFF38F00000C28
(1620098111.538776) can0 1E0292D0#0000000000001D94
(1620098111.538925) can0 1E02D2D0#0000000000000000
(1620098111.539064) can0 1E0312D0#0000000000000000
(1620098111.539229) can0 1E0352D0#0000000000000000
(1620098111.539382) can0 1E0392D0#0000000000000000
(1620098111.539482) can0 1E03D2D0#0000000000000000
(1620098111.539668) can0 1E0412D0#0000000000000000
(1620098111.539820) can0 1E0452D0#0000000000000000
(1620098111.539970) can0 1E0492D0#0000000000000000
(1620098111.540122) can0 1E04D2D0#0000000000000000
(1620098111.540220) can0 1E0512D0#0000000000000000
(1620098111.540404) can0 1E0552D0#0000000000000000
(1620098111.540556) can0 1E0592D0#0000000000000000
(1620098111.540707) can0 1E05D2D0#0000000000000000
(1620098111.540806) can0 1E0612D0#0000000000000000
(1620098111.540987) can0 1FF412D0#1100EEFF0001DC1B
(1620098111.541138) can0 1FF452D0#00024D3900000000
(1620098111.547354) can0 1E0012D0#33EE883800000000
(1620098111.547506) can0 1E0052D0#00000E4E000015B9
(1620098111.547604) can0 1E0092D0#00000000000006CA
(1620098111.547785) can0 1E00D2D0#00001E0000000000
(1620098111.547938) can0 1E0112D0#00000D2900001E00
(1620098111.548036) can0 1E0152D0#00000F0000001E00
(1620098111.548216) can0 1E0192D0#0000556B00000000
(1620098111.548367) can0 1E01D2D0#00004CC100000000
(1620098111.548465) can0 1E0212D0#000056D100004DEC
(1620098111.548644) can0 1E0252D0#FFFFF38F00000C29
(1620098111.548795) can0 1E0292D0#0000000000001D93
(1620098111.548946) can0 1E02D2D0#0000000000000000
(1620098111.549044) can0 1E0312D0#0000000000000000
(1620098111.549227) can0 1E0352D0#0000000000000000
(1620098111.549388) can0 1E0392D0#0000000000000000
(1620098111.549486) can0 1E03D2D0#0000000000000000
(1620098111.549671) can0 1E0412D0#0000000000000000
(1620098111.549824) can0 1E0452D0#0000000000000000
(1620098111.549975) can0 1E0492D0#0000000000000000
(1620098111.550126) can0 1E04D2D0#0000000000000000
(1620098111.550230) can0 1E0512D0#0000000000000000
(1620098111.550408) can0 1E0552D0#0000000000000000
(1620098111.550559) can0 1E0592D0#0000000000000000
(1620098111.550710) can0 1E05D2D0#0000000000000000
(1620098111.550861) can0 1E0612D0#0000000000000000
(1620098111.550959) can0 1FF412D0#1100EEFF0001DC1B
(1620098111.551132) can0 1FF452D0#00024D3900000000
(1620098111.557353) can0 1E0012D0#33EE884200000000
(1620098111.557504) can0 1E0052D0#00000E4E000015BA
(1620098111.557602) can0 1E0092D0#00000000000006CA
(1620098111.557785) can0 1E00D2D0#00001E0000000000
(1620098111.557936) can0 1E0112D0#00000D2900001E00
(1620098111.558034) can0 1E0152D0#00000F0000001E00
(1620098111.558216) can0 1E0192D0#0000556B00000000
(1620098111.558367) can0 1E01D2D0#00004CC000000000
(1620098111.558465) can0 1E0212D0#000056D100004DEC
(1620098111.558644) can0 1E0252D0#FFFFF38F00000C29
(1620098111.558796) can0 1E0292D0#0000000000001D8F
(1620098111.558894) can0 1E02D2D0#0000000000000000
(1620098111.559080) can0 1E0312D0#0000000000000000
(1620098111.559231) can0 1E0352D0#0000000000000000
(1620098111.559388) can0 1E0392D0#0000000000000000
(1620098111.559487) can0 1E03D2D0#0000000000000000
(1620098111.559671) can0 1E0412D0#0000000000000000
(1620098111.559822) can0 1E0452D0#0000000000000000
(1620098111.559973) can0 1E0492D0#0000000000000000
(1620098111.560124) can0 1E04D2D0#0000000000000000
(1620098111.560222) can0 1E0512D0#0000000000000000
(1620098111.560407) can0 1E0552D0#0000000000000000
(1620098111.560559) can0 1E0592D0#0000000000000000
(1620098111.560710) can0 1E05D2D0#0000000000000000
(1620098111.560808) can0 1E0612D0#0000000000000000
(1620098111.560991) can0 1FF412D0#1100EEFF0001DC1B
(1620098111.561143) can0 1FF452D0#00024D3900000000
(1620098111.567353) can0 1E0012D0#33EE884C00000000
(1620098111.567504) can0 1E0052D0#00000E4E000015BA
(1620098111.567602) can0 1E0092D0#00000000000006CA
(1620098111.567784) can0 1E00D2D0#00001E0000000000
(1620098111.567935) can0 1E0112D0#00000D2900001E00
(1620098111.568034) can0 1E0152D0#00000F0000001E00
(1620098111.568216) can0 1E0192D0#0000556900000000
(1620098111.568367) can0 1E01D2D0#00004CC100000000
(1620098111.568464) can0 1E0212D0#000056D000004DEA
(1620098111.568645) can0 1E0252D0#FFFFF38F00000C25
(1620098111.568797) can0 1E0292D0#0000000000001D93
(1620098111.568948) can0 1E02D2D0#0000000000000000
(1620098111.569046) can0 1E0312D0#0000000000000000
(1620098111.569228) can0 1E0352D0#0000000000000000
(1620098111.569388) can0 1E0392D0#0000000000000000
(1620098111.569487) can0 1E03D2D0#0000000000000000
(1620098111.569673) can0 1E0412D0#0000000000000000
(1620098111.569824) can0 1E0452D0#0000000000000000
(1620098111.569976) can0 1E0492D0#0000000000000000
(1620098111.570131) can0 1E04D2D0#0000000000000000
(1620098111.570230) can0 1E0512D0#0000000000000000
(1620098111.570409) can0 1E0552D0#0000000000000000
(1620098111.570560) can0 1E0592D0#0000000000000000
(1620098111.570713) can0 1E05D2D0#0000000000000000
(1620098111.570811) can0 1E0612D0#0000000000000000
(1620098111.570992) can0 1FF412D0#1100EEFF0001DC1B
(1620098111.571143) can0 1FF452D0#00024D3900000000
(1620098111.577350) can0 1E0012D0#33EE885600000000
(1620098111.577501) can0 1E0052D0#00000E4E000015BA
(1620098111.577599) can0 1E0092D0#00000000000006CA
(1620098111.577784) can0 1E00D2D0#00001E0000000000
(1620098111.577935) can0 1E0112D0#00000D2900001E00
(1620098111.578033) can0 1E0152D0#00000F0000001E00
(1620098111.578213) can0 1E0192D0#0000556900000000
(1620098111.578365) can0 1E01D2D0#00004CBF00000000
(1620098111.578463) can0 1E0212D0#000056D000004DEB
(1620098111.578644) can0 1E0252D0#FFFFF38F00000C25
(1620098111.578795) can0 1E0292D0#0000000000001D94
(1620098111.578946) can0 1E02D2D0#0000000000000000
(1620098111.579045) can0 1E0312D0#0000000000000000
(1620098111.579228) can0 1E0352D0#0000000000000000
(1620098111.579388) can0 1E0392D0#0000000000000000
(1620098111.579486) can0 1E03D2D0#0000000000000000
(1620098111.579672) can0 1E0412D0#0000000000000000
(1620098111.579823) can0 1E0452D0#0000000000000000
(1620098111.579974) can0 1E0492D0#0000000000000000
(1620098111.580127) can0 1E04D2D0#0000000000000000
(1620098111.580225) can0 1E0512D0#0000000000000000
(1620098111.580408) can0 1E0552D0#0000000000000000
(1620098111.580559) can0 1E0592D0#0000000000000000
(1620098111.580703) can0 1E05D2D0#0000000000000000
(1620098111.580847) can0 1E0612D0#0000000000000000
(1620098111.580997) can0 1FF412D0#1100EEFF0001DC1B
(1620098111.581095) can0 1FF452D0#00024D3900000000
(1620098111.587352) can0 1E0012D0#33EE886000000000
(1620098111.587503) can0 1E0052D0#00000E4E000015BA
(1620098111.587602) can0 1E0092D0#00000000000006CA
(1620098111.587783) can0 1E00D2D0#00001E0000000000
(1620098111.587934) can0 1E0112D0#00000D2900001E00
(1620098111.588032) can0 1E0152D0#00000F0000001E00
(1620098111.588216) can0 1E0192D0#0000556800000000
(1620098111.588367) can0 1E01D2D0#00004CC200000000
(1620098111.588467) can0 1E0212D0#000056CC00004DEB
(1620098111.588644) can0 1E0252D0#FFFFF38F00000C27
(1620098111.588795) can0 1E0292D0#0000000000001D90
(1620098111.588946) can0 1E02D2D0#0000000000000000
(1620098111.589044) can0 1E0312D0#0000000000000000
(1620098111.589228) can0 1E0352D0#0000000000000000
(1620098111.589388) can0 1E0392D0#0000000000000000
(1620098111.589486) can0 1E03D2D0#0000000000000000
(1620098111.589672) can0 1E0412D0#0000000000000000
(1620098111.589823) can0 1E0452D0#0000000000000000
(1620098111.589974) can0 1E0492D0#0000000000000000
(1620098111.590125) can0 1E04D2D0#0000000000000000
(1620098111.590223) can0 1E0512D0#0000000000000000
(1620098111.590408) can0 1E0552D0#0000000000000000
(1620098111.590559) can0 1E0592D0#0000000000000000
(1620098111.590710) can0 1E05D2D0#0000000000000000
(1620098111.590863) can0 1E0612D0#0000000000000000
(1620098111.590961) can0 1FF412D0#1100EEFF0001DC1B
(1620098111.591133) can0 1FF452D0#00024D3900000000
(1620098111.597350) can0 1E0012D0#33EE886A00000000
(1620098111.597501) can0 1E0052D0#00000E4E000015BA
(1620098111.597601) can0 1E0092D0#00000000000006CA
(1620098111.597782) can0 1E00D2D0#00001E0000000000
(1620098111.597933) can0 1E0112D0#00000D2900001E00
(1620098111.598031) can0 1E0152D0#00000F0000001E00
(1620098111.598213) can0 1E0192D0#0000556900000000
(1620098111.598364) can0 1E01D2D0#00004CBD00000000
(1620098111.598462) can0 1E0212D0#000056CC00004DEB
(1620098111.598642) can0 1E0252D0#FFFFF38F00000C27
(1620098111.598793) can0 1E0292D0#0000000000001D90
(1620098111.598945) can0 1E02D2D0#0000000000000000
(1620098111.599043) can0 1E0312D0#0000000000000000
(1620098111.599228) can0 1E0352D0#0000000000000000
(1620098111.599388) can0 1E0392D0#0000000000000000
(1620098111.599486) can0 1E03D2D0#0000000000000000
(1620098111.599670) can0 1E0412D0#0000000000000000
(1620098111.599821) can0 1E0452D0#0000000000000000
(1620098111.599972) can0 1E0492D0#0000000000000000
(1620098111.600124) can0 1E04D2D0#0000000000000000
(1620098111.600222) can0 1E0512D0#0000000000000000
(1620098111.600406) can0 1E0552D0#0000000000000000
(1620098111.600559) can0 1E0592D0#0000000000000000
(1620098111.600710) can0 1E05D2D0#0000000000000000
(1620098111.600808) can0 1E0612D0#0000000000000000
(1620098111.600989) can0 1FF412D0#1100EEFF0001DC1B
(1620098111.601140) can0 1FF452D0#00024D3900000000
(1620098111.607353) can0 1E0012D0#33EE887400000000
(1620098111.607503) can0 1E0052D0#00000E4E000015BA
(1620098111.607603) can0 1E0092D0#00000000000006CA
(1620098111.607784) can0 1E00D2D0#00001E0000000000
(1620098111.607935) can0 1E0112D0#00000D2900001E00
(1620098111.608033) can0 1E0152D0#00000F0000001E00
(1620098111.608217) can0 1E0192D0#0000556800000000
(1620098111.608368) can0 1E01D2D0#00004CC000000000
(1620098111.608466) can0 1E0212D0#000056CC00004DEB
(1620098111.608646) can0 1E0252D0#FFFFF38F00000C29
(1620098111.608796) can0 1E0292D0#0000000000001D91
(1620098111.608948) can0 1E02D2D0#0000000000000000
(1620098111.609046) can0 1E0312D0#0000000000000000
(1620098111.609232) can0 1E0352D0#0000000000000000
(1620098111.609388) can0 1E0392D0#0000000000000000
(1620098111.609488) can0 1E03D2D0#0000000000000000
(1620098111.609676) can0 1E0412D0#0000000000000000
(1620098111.609827) can0 1E0452D0#0000000000000000
(1620098111.609979) can0 1E0492D0#0000000000000000
(1620098111.610077) can0 1E04D2D0#0000000000000000
(1620098111.610263) can0 1E0512D0#0000000000000000
(1620098111.610415) can0 1E0552D0#0000000000000000
(1620098111.610566) can0 1E0592D0#0000000000000000
(1620098111.610718) can0 1E05D2D0#0000000000000000
(1620098111.610816) can0 1E0612D0#0000000000000000
(1620098111.610995) can0 1FF412D0#1100EEFF0001DC1B
(1620098111.611146) can0 1FF452D0#00024D3900000000
(1620098111.617352) can0 1E0012D0#33EE887E00000000
(1620098111.617503) can0 1E0052D0#00000E4E000015BA
(1620098111.617601) can0 1E0092D0#00000000000006CA
(1620098111.617783) can0 1E00D2D0#00001E0000000000
(1620098111.617935) can0 1E0112D0#00000D2900001E00
(1620098111.618033) can0 1E0152D0#00000F0000001E00
(1620098111.618215) can0 1E0192D0#0000556900000000
(1620098111.618368) can0 1E01D2D0#00004CC500000000
(1620098111.618467) can0 1E0212D0#000056CC00004DEC
(1620098111.618641) can0 1E0252D0#FFFFF38F00000C29
(1620098111.618792) can0 1E0292D0#0000000000001D92
(1620098111.618943) can0 1E02D2D0#0000000000000000
(1620098111.619041) can0 1E0312D0#0000000000000000
(1620098111.619226) can0 1E0352D0#0000000000000000
(1620098111.619394) can0 1E0392D0#0000000000000000
(1620098111.619493) can0 1E03D2D0#0000000000000000
(1620098111.619665) can0 1E0412D0#0000000000000000
(1620098111.619816) can0 1E0452D0#0000000000000000
(1620098111.619968) can0 1E0492D0#0000000000000000
(1620098111.620119) can0 1E04D2D0#0000000000000000
(1620098111.620270) can0 1E0512D0#0000000000000000
(1620098111.620368) can0 1E0552D0#0000000000000000
(1620098111.620553) can0 1E0592D0#0000000000000000
(1620098111.620706) can0 1E05D2D0#0000000000000000
(1620098111.620857) can0 1E0612D0#0000000000000000
(1620098111.620955) can0 1FF412D0#1100EEFF0001DC1B
(1620098111.621132) can0 1FF452D0#00024D3900000000
(1620098111.627351) can0 1E0012D0#33EE888800000000
(1620098111.627505) can0 1E0052D0#00000E4E000015BA
(1620098111.627603) can0 1E0092D0#00000000000006CA
(1620098111.627783) can0 1E00D2D0#00001E0000000000
(1620098111.627934) can0 1E0112D0#00000D2900001E00
(1620098111.628032) can0 1E0152D0#00000F0000001E00
(1620098111.628215) can0 1E0192D0#0000556A00000000
(1620098111.628366) can0 1E01D2D0#00004CC700000000
(1620098111.628464) can0 1E0212D0#000056CD00004DEB
(1620098111.628641) can0 1E0252D0#FFFFF38F00000C29
(1620098111.628791) can0 1E0292D0#0000000000001D90
(1620098111.628942) can0 1E02D2D0#0000000000000000
(1620098111.629042) can0 1E0312D0#0000000000000000
(1620098111.629225) can0 1E0352D0#0000000000000000
(1620098111.629390) can0 1E0392D0#0000000000000000
(1620098111.629489) can0 1E03D2D0#0000000000000000
(1620098111.629669) can0 1E0412D0#0000000000000000
(1620098111.629820) can0 1E0452D0#0000000000000000
(1620098111.629971) can0 1E0492D0#0000000000000000
(1620098111.630126) can0 1E04D2D0#0000000000000000
(1620098111.630225) can0 1E0512D0#0000000000000000
(1620098111.630405) can0 1E0552D0#0000000000000000
(1620098111.630555) can0 1E0592D0#0000000000000000
(1620098111.630707) can0 1E05D2D0#0000000000000000
(1620098111.630858) can0 1E0612D0#0000000000000000
(1620098111.630956) can0 1FF412D0#1100EEFF0001DC1B
(1620098111.631130) can0 1FF452D0#00024D3900000000
(1620098111.637349) can0 1E0012D0#33EE889200000000
(1620098111.637502) can0 1E0052D0#00000E4E000015BA
(1620098111.637600) can0 1E0092D0#00000000000006CA
(1620098111.637781) can0 1E00D2D0#00001E0000000000
(1620098111.637932) can0 1E0112D0#00000D2900001E00
(1620098111.638030) can0 1E0152D0#00000F0000001E00
(1620098111.638212) can0 1E0192D0#0000556900000000
(1620098111.638364) can0 1E01D2D0#00004CC200000000
(1620098111.638462) can0 1E0212D0#000056CD00004DEA
(1620098111.638637) can0 1E0252D0#FFFFF38F00000C29
(1620098111.638788) can0 1E0292D0#0000000000001D8E
(1620098111.638939) can0 1E02D2D0#0000000000000000
(1620098111.639037) can0 1E0312D0#0000000000000000
(1620098111.639221) can0 1E0352D0#0000000000000000
(1620098111.639386) can0 1E0392D0#0000000000000000
(1620098111.639485) can0 1E03D2D0#0000000000000000
(1620098111.639665) can0 1E0412D0#0000000000000000
(1620098111.639818) can0 1E0452D0#0000000000000000
(1620098111.639969) can0 1E0492D0#0000000000000000
(1620098111.640067) can0 1E04D2D0#0000000000000000
(1620098111.640253) can0 1E0512D0#0000000000000000
(1620098111.640404) can0 1E0552D0#0000000000000000
(1620098111.640555) can0 1E0592D0#0000000000000000
(1620098111.640706) can0 1E05D2D0#0000000000000000
(1620098111.640804) can0 1E0612D0#0000000000000000
(1620098111.640984) can0 1FF412D0#1100EEFF0001DC1B
(1620098111.641136) can0 1FF452D0#00024D3900000000
(1620098111.647348) can0 1E0012D0#33EE889C00000000
(1620098111.647500) can0 1E0052D0#00000E4E000015BA
(1620098111.647598) can0 1E0092D0#00000000000006CA
(1620098111.647780) can0 1E00D2D0#00001E0000000000
(1620098111.647931) can0 1E0112D0#00000D2900001E00
(1620098111.648029) can0 1E0152D0#00000F0000001E00
(1620098111.648214) can0 1E0192D0#0000556900000000
(1620098111.648366) can0 1E01D2D0#00004CC500000000
(1620098111.648464) can0 1E0212D0#000056CD00004DEA
(1620098111.648636) can0 1E0252D0#FFFFF38F00000C29
(1620098111.648788) can0 1E0292D0#0000000000001D8E
(1620098111.648939) can0 1E02D2D0#0000000000000000
(1620098111.649037) can0 1E0312D0#0000000000000000
(1620098111.649221) can0 1E0352D0#0000000000000000
(1620098111.649386) can0 1E0392D0#0000000000000000
(1620098111.649485) can0 1E03D2D0#0000000000000000
(1620098111.649664) can0 1E0412D0#0000000000000000
(1620098111.649815) can0 1E0452D0#0000000000000000
(1620098111.649967) can0 1E0492D0#0000000000000000
(1620098111.650122) can0 1E04D2D0#0000000000000000
(1620098111.650220) can0 1E0512D0#0000000000000000
(1620098111.650401) can0 1E0552D0#0000000000000000
(1620098111.650553) can0 1E0592D0#0000000000000000
(1620098111.650704) can0 1E05D2D0#0000000000000000
(1620098111.650802) can0 1E0612D0#0000000000000000
(1620098111.650984) can0 1FF412D0#1100EEFF0001DC1B
(1620098111.651135) can0 1FF452D0#00024D3900000000
(1620098111.657351) can0 1E0012D0#33EE88A600000000
(1620098111.657502) can0 1E0052D0#00000E4E000015BA
(1620098111.657600) can0 1E0092D0#00000000000006CA
(1620098111.657783) can0 1E00D2D0#00001E0000000000
(1620098111.657934) can0 1E0112D0#00000D2900001E00
(1620098111.658033) can0 1E0152D0#00000F0000001E00
(1620098111.658214) can0 1E0192D0#0000556A00000000
(1620098111.658366) can0 1E01D2D0#00004CBF00000000
(1620098111.658464) can0 1E0212D0#000056CD00004DEA
(1620098111.658642) can0 1E0252D0#FFFFF38F00000C29
(1620098111.658794) can0 1E0292D0#0000000000001D91
(1620098111.658947) can0 1E02D2D0#0000000000000000
(1620098111.659045) can0 1E0312D0#0000000000000000
(1620098111.659228) can0 1E0352D0#0000000000000000
(1620098111.659388) can0 1E0392D0#0000000000000000
(1620098111.659487) can0 1E03D2D0#0000000000000000
(1620098111.659672) can0 1E0412D0#0000000000000000
(1620098111.659824) can0 1E0452D0#0000000000000000
(1620098111.659974) can0 1E0492D0#0000000000000000
(1620098111.660125) can0 1E04D2D0#0000000000000000
(1620098111.660225) can0 1E0512D0#0000000000000000
(1620098111.660408) can0 1E0552D0#0000000000000000
(1620098111.660559) can0 1E0592D0#0000000000000000
(1620098111.660711) can0 1E05D2D0#0000000000000000
(1620098111.660862) can0 1E0612D0#0000000000000000
(1620098111.660960) can0 1FF412D0#1100EEFF0001DC1B
(1620098111.661133) can0 1FF452D0#00024D3900000000
(1620098111.667351) can0 1E0012D0#33EE88B000000000
(1620098111.667502) can0 1E0052D0#00000E4E000015BB
(1620098111.667601) can0 1E0092D0#00000000000006CA
(1620098111.667781) can0 1E00D2D0#00001E0000000000
(1620098111.667932) can0 1E0112D0#00000D2900001E00
(1620098111.668030) can0 1E0152D0#00000F0000001E00
(1620098111.668213) can0 1E0192D0#0000556900000000
(1620098111.668364) can0 1E01D2D0#00004CBF00000000
(1620098111.668462) can0 1E0212D0#000056CD00004DE8
(1620098111.668641) can0 1E0252D0#FFFFF39000000C29
(1620098111.668792) can0 1E0292D0#0000000000001D93
(1620098111.668943) can0 1E02D2D0#0000000000000000
(1620098111.669041) can0 1E0312D0#0000000000000000
(1620098111.669225) can0 1E0352D0#0000000000000000
(1620098111.669387) can0 1E0392D0#0000000000000000
(1620098111.669486) can0 1E03D2D0#0000000000000000
(1620098111.669670) can0 1E0412D0#0000000000000000
(1620098111.669821) can0 1E0452D0#0000000000000000
(1620098111.669972) can0 1E0492D0#0000000000000000
(1620098111.670070) can0 1E04D2D0#0000000000000000
(1620098111.670257) can0 1E0512D0#0000000000000000
(1620098111.670407) can0 1E0552D0#0000000000000000
(1620098111.670559) can0 1E0592D0#0000000000000000
(1620098111.670710) can0 1E05D2D0#0000000000000000
(1620098111.670808) can0 1E0612D0#0000000000000000
(1620098111.670988) can0 1FF412D0#1100EEFF0001DC1B
(1620098111.671139) can0 1FF452D0#00024D3900000000
(1620098111.677349) can0 1E0012D0#33EE88BA00000000
(1620098111.677500) can0 1E0052D0#00000E4F000015BB
(1620098111.677598) can0 1E0092D0#00000000000006CA
(1620098111.677782) can0 1E00D2D0#00001E0000000000
(1620098111.677933) can0 1E0112D0#00000D2900001E00
(1620098111.678033) can0 1E0152D0#00000F0000001E00
(1620098111.678212) can0 1E0192D0#0000556B00000000
(1620098111.678363) can0 1E01D2D0#00004CBA00000000
(1620098111.678461) can0 1E0212D0#000056CD00004DE8
(1620098111.678638) can0 1E0252D0#FFFFF38F00000C29
(1620098111.678789) can0 1E0292D0#0000000000001D93
(1620098111.678940) can0 1E02D2D0#0000000000000000
(1620098111.679039) can0 1E0312D0#0000000000000000
(1620098111.679222) can0 1E0352D0#0000000000000000
(1620098111.679387) can0 1E0392D0#0000000000000000
(1620098111.679485) can0 1E03D2D0#0000000000000000
(1620098111.679666) can0 1E0412D0#0000000000000000
(1620098111.679817) can0 1E0452D0#0000000000000000
(1620098111.679968) can0 1E0492D0#0000000000000000
(1620098111.680119) can0 1E04D2D0#0000000000000000
(1620098111.680218) can0 1E0512D0#0000000000000000
(1620098111.680404) can0 1E0552D0#0000000000000000
(1620098111.680555) can0 1E0592D0#0000000000000000
(1620098111.680712) can0 1E05D2D0#0000000000000000
(1620098111.680811) can0 1E0612D0#0000000000000000
(1620098111.680989) can0 1FF412D0#1100EEFF0001DC1B
(1620098111.681089) can0 1FF452D0#00024D3900000000
(1620098111.687349) can0 1E0012D0#33EE88C400000000
(1620098111.687500) can0 1E0052D0#00000E4F000015BB
(1620098111.687598) can0 1E0092D0#00000000000006CA
(1620098111.687782) can0 1E00D2D0#00001E0000000000
(1620098111.687933) can0 1E0112D0#00000D2900001E00
(1620098111.688031) can0 1E0152D0#00000F0000001E00
(1620098111.688213) can0 1E0192D0#0000556900000000
(1620098111.688364) can0 1E01D2D0#00004CBD00000000
(1620098111.688463) can0 1E0212D0#000056CE00004DE8
(1620098111.688641) can0 1E0252D0#FFFFF38F00000C25
(1620098111.688793) can0 1E0292D0#0000000000001D92
(1620098111.688944) can0 1E02D2D0#0000000000000000
(1620098111.689042) can0 1E0312D0#0000000000000000
(1620098111.689226) can0 1E0352D0#0000000000000000
(1620098111.689388) can0 1E0392D0#0000000000000000
(1620098111.689486) can0 1E03D2D0#0000000000000000
(1620098111.689667) can0 1E0412D0#0000000000000000
(1620098111.689815) can0 1E0452D0#0000000000000000
(1620098111.689963) can0 1E0492D0#0000000000000000
(1620098111.690113) can0 1E04D2D0#0000000000000000
(1620098111.690261) can0 1E0512D0#0000000000000000
(1620098111.690410) can0 1E0552D0#0000000000000000
(1620098111.690559) can0 1E0592D0#0000000000000000
(1620098111.690707) can0 1E05D2D0#0000000000000000
(1620098111.690855) can0 1E0612D0#0000000000000000
(1620098111.690953) can0 1FF412D0#1100EEFF0001DC1B
(1620098111.691129) can0 1FF452D0#00024D3900000000
(1620098111.697344) can0 1E0012D0#33EE88CE00000000
(1620098111.697492) can0 1E0052D0#00000E4F000015BB
(1620098111.697640) can0 1E0092D0#00000000000006CA
(1620098111.697788) can0 1E00D2D0#00001E0000000000
(1620098111.697886) can0 1E0112D0#00000D2900001E00
(1620098111.698064) can0 1E0152D0#00000F0000001E00
(1620098111.698212) can0 1E0192D0#0000556900000000
(1620098111.698361) can0 1E01D2D0#00004CBF00000000
(1620098111.698509) can0 1E0212D0#000056CE00004DE8
(1620098111.698607) can0 1E0252D0#FFFFF39000000C25
(1620098111.698781) can0 1E0292D0#0000000000001D93
(1620098111.698929) can0 1E02D2D0#0000000000000000
(1620098111.699078) can0 1E0312D0#0000000000000000
(1620098111.699226) can0 1E0352D0#0000000000000000
(1620098111.699393) can0 1E0392D0#0000000000000000
(1620098111.699493) can0 1E03D2D0#0000000000000000
(1620098111.699684) can0 1E0412D0#0000000000000000
(1620098111.699782) can0 1E0452D0#0000000000000000
(1620098111.699957) can0 1E0492D0#0000000000000000
(1620098111.700097) can0 1E04D2D0#0000000000000000
(1620098111.700250) can0 1E0512D0#0000000000000000
(1620098111.700398) can0 1E0552D0#0000000000000000
(1620098111.700538) can0 1E0592D0#0000000000000000
(1620098111.700704) can0 1E05D2D0#0000000000000000
(1620098111.700855) can0 1E0612D0#0000000000000000
(1620098111.700954) can0 1FF412D0#1100EEFF0001DC1B
(1620098111.701129) can0 1FF452D0#00024D3900000000
(1620098111.707347) can0 1E0012D0#33EE88D800000000
(1620098111.707499) can0 1E0052D0#00000E4F000015BB
(1620098111.707597) can0 1E0092D0#00000000000006CA
(1620098111.707780) can0 1E00D2D0#00001E0000000000
(1620098111.707933) can0 1E0112D0#00000D2900001E00
(1620098111.708033) can0 1E0152D0#00000F0000001E00
(1620098111.708213) can0 1E0192D0#0000556800000000
(1620098111.708364) can0 1E01D2D0#00004CC400000000
(1620098111.708462) can0 1E0212D0#000056CE00004DE8
(1620098111.708641) can0 1E0252D0#FFFFF39000000C27
(1620098111.708792) can0 1E0292D0#0000000000001D94
(1620098111.708943) can0 1E02D2D0#0000000000000000
(1620098111.709041) can0 1E0312D0#0000000000000000
(1620098111.709225) can0 1E0352D0#0000000000000000
(1620098111.709388) can0 1E0392D0#0000000000000000
(1620098111.709486) can0 1E03D2D0#0000000000000000
(1620098111.709668) can0 1E0412D0#0000000000000000
(1620098111.709820) can0 1E0452D0#0000000000000000
(1620098111.709971) can0 1E0492D0#0000000000000000
(1620098111.710127) can0 1E04D2D0#0000000000000000
(1620098111.710227) can0 1E0512D0#0000000000000000
(1620098111.710405) can0 1E0552D0#0000000000000000
(1620098111.710555) can0 1E0592D0#0000000000000000
(1620098111.710706) can0 1E05D2D0#0000000000000000
(1620098111.710857) can0 1E0612D0#0000000000000000
(1620098111.710957) can0 1FF412D0#1100EEFF0001DC1B
(1620098111.711130) can0 1FF452D0#00024D3900000000
(1620098111.717348) can0 1E0012D0#33EE88E200000000
(1620098111.717500) can0 1E0052D0#00000E4F000015BB
(1620098111.717598) can0 1E0092D0#00000000000006CA
(1620098111.717781) can0 1E00D2D0#00001E0000000000
(1620098111.717932) can0 1E0112D0#00000D2900001E00
(1620098111.718031) can0 1E0152D0#00000F0000001E00
(1620098111.718214) can0 1E0192D0#0000556800000000
(1620098111.718365) can0 1E01D2D0#00004CBD00000000
(1620098111.718463) can0 1E0212D0#000056CE00004DE8
(1620098111.718644) can0 1E0252D0#FFFFF39000000C27
(1620098111.718795) can0 1E0292D0#0000000000001D93
(1620098111.718893) can0 1E02D2D0#0000000000000000
(1620098111.719079) can0 1E0312D0#0000000000000000
(1620098111.719230) can0 1E0352D0#0000000000000000
(1620098111.719388) can0 1E0392D0#0000000000000000
(1620098111.719487) can0 1E03D2D0#0000000000000000
(1620098111.719670) can0 1E0412D0#0000000000000000
(1620098111.719822) can0 1E0452D0#0000000000000000
(1620098111.719975) can0 1E0492D0#0000000000000000
(1620098111.720072) can0 1E04D2D0#0000000000000000
(1620098111.720258) can0 1E0512D0#0000000000000000
(1620098111.720409) can0 1E0552D0#0000000000000000
(1620098111.720560) can0 1E0592D0#0000000000000000
(1620098111.720711) can0 1E05D2D0#0000000000000000
(1620098111.720810) can0 1E0612D0#0000000000000000
(1620098111.720990) can0 1FF412D0#1100EEFF0001DC1B
(1620098111.721142) can0 1FF452D0#00024D3900000000
(1620098111.727348) can0 1E0012D0#33EE88EC00000000
(1620098111.727500) can0 1E0052D0#00000E4F000015BB
(1620098111.727598) can0 1E0092D0#00000000000006CA
(1620098111.727781) can0 1E00D2D0#00001E0000000000
(1620098111.727933) can0 1E0112D0#00000D2900001E00
(1620098111.728031) can0 1E0152D0#00000F0000001E00
(1620098111.728214) can0 1E0192D0#0000556800000000
(1620098111.728366) can0 1E01D2D0#00004CBF00000000
(1620098111.728464) can0 1E0212D0#000056CE00004DE8
(1620098111.728644) can0 1E0252D0#FFFFF39000000C28
(1620098111.728795) can0 1E0292D0#0000000000001D93
(1620098111.728895) can0 1E02D2D0#0000000000000000
(1620098111.729080) can0 1E0312D0#0000000000000000
(1620098111.729232) can0 1E0352D0#0000000000000000
(1620098111.729389) can0 1E0392D0#0000000000000000
(1620098111.729488) can0 1E03D2D0#0000000000000000
(1620098111.729671) can0 1E0412D0#0000000000000000
(1620098111.729822) can0 1E0452D0#0000000000000000
(1620098111.729974) can0 1E0492D0#0000000000000000
(1620098111.730076) can0 1E04D2D0#0000000000000000
(1620098111.730259) can0 1E0512D0#0000000000000000
(1620098111.730411) can0 1E0552D0#0000000000000000
(1620098111.730562) can0 1E0592D0#0000000000000000
(1620098111.730712) can0 1E05D2D0#0000000000000000
(1620098111.730810) can0 1E0612D0#0000000000000000
(1620098111.730991) can0 1FF412D0#1100EEFF0001DC1B
(1620098111.731142) can0 1FF452D0#00024D3900000000
(1620098111.737347) can0 1E0012D0#33EE88F600000000
(1620098111.737498) can0 1E0052D0#00000E4E000015BB
(1620098111.737596) can0 1E0092D0#00000000000006CA
(1620098111.737780) can0 1E00D2D0#00001E0000000000
(1620098111.737933) can0 1E0112D0#00000D2900001E00
(1620098111.738031) can0 1E0152D0#00000F0000001E00
(1620098111.738210) can0 1E0192D0#0000556900000000
(1620098111.738362) can0 1E01D2D0#00004CBF00000000
(1620098111.738460) can0 1E0212D0#000056CE00004DE9
(1620098111.738640) can0 1E0252D0#FFFFF39000000C28
(1620098111.738791) can0 1E0292D0#0000000000001D95
(1620098111.738943) can0 1E02D2D0#0000000000000000
(1620098111.739041) can0 1E0312D0#0000000000000000
(1620098111.739225) can0 1E0352D0#0000000000000000
(1620098111.739387) can0 1E0392D0#0000000000000000
(1620098111.739486) can0 1E03D2D0#0000000000000000
(1620098111.739669) can0 1E0412D0#0000000000000000
(1620098111.739808) can0 1E0452D0#0000000000000000
(1620098111.739956) can0 1E0492D0#0000000000000000
(1620098111.740121) can0 1E04D2D0#0000000000000000
(1620098111.740220) can0 1E0512D0#0000000000000000
(1620098111.740405) can0 1E0552D0#0000000000000000
(1620098111.740543) can0 1E0592D0#0000000000000000
(1620098111.740692) can0 1E05D2D0#0000000000000000
(1620098111.740834) can0 1E0612D0#0000000000000000
(1620098111.740982) can0 1FF412D0#1100EEFF0001DC1B
(1620098111.741120) can0 1FF452D0#00024D3900000000
(1620098111.747349) can0 1E0012D0#33EE890000000000
(1620098111.747487) can0 1E0052D0#00000E4E000015BB
(1620098111.747625) can0 1E0092D0#00000000000006CA
(1620098111.747774) can0 1E00D2D0#00001E0000000000
(1620098111.747912) can0 1E0112D0#00000D2900001E00
(1620098111.748061) can0 1E0152D0#00000F0000001E00
(1620098111.748199) can0 1E0192D0#0000556900000000
(1620098111.748351) can0 1E01D2D0#00004CC100000000
(1620098111.748505) can0 1E0212D0#000056CF00004DE9
(1620098111.748604) can0 1E0252D0#FFFFF39000000C29
(1620098111.748783) can0 1E0292D0#0000000000001D95
(1620098111.748922) can0 1E02D2D0#0000000000000000
(1620098111.749071) can0 1E0312D0#0000000000000000
(1620098111.749211) can0 1E0352D0#0000000000000000
(1620098111.749390) can0 1E0392D0#0000000000000000
(1620098111.749489) can0 1E03D2D0#0000000000000000
