(1619905138.482906) can0 1E0052D0#4466942600000021
(1619905138.483039) can0 1E0012D0#00000179285FFE01
(1619905138.483178) can0 1E0052D0#4466942600000021
(1619905138.483320) can0 1E0092D0#40155F4F00000000
(1619905138.483461) can0 1E00D2D0#4030B49000000000
(1619905138.483602) can0 1E0112D0#414A55BD00000000
(1619905138.483742) can0 1E0152D0#4163333300000000
(1619905138.483884) can0 1E0192D0#41643E7400000004
(1619905138.484023) can0 1E0352D0#4261D1AA00000000
(1619905138.484169) can0 1E0392D0#3F80000000000027
(1619905138.484315) can0 1E03D2D0#3F80000000000029
(1619905138.484462) can0 1E0412D0#000000000000000C
(1619905138.484604) can0 1E0452D0#410E0DF300000000
(1619905138.484745) can0 1E01D2D0#41643E7400000000
(1619905138.484886) can0 1E0212D0#41643E7400000000
(1619905138.485033) can0 1E0492D0#0000000000000000
(1619905138.485182) can0 1E04D2D0#0000000000000000
(1619905138.485327) can0 1E0512D0#0000000000000000
(1619905138.485468) can0 1E0552D0#428401CE00000000
(1619905138.485610) can0 1E0592D0#417B049C00000000
(1619905138.485756) can0 1E05D2D0#0000000000000000
(1619905138.485897) can0 1E06D2D0#445A6D2600000000
(1619905138.486041) can0 1E0712D0#4213EBDA00000000
(1619905138.486188) can0 1E0752D0#0000000000000000
(1619905138.486331) can0 1E0792D0#42FB209900000000
(1619905138.486473) can0 1E07D2D0#432061AF00000000
(1619905138.486620) can0 1E0612D0#0000000000000000
(1619905138.486762) can0 1E0692D0#41A93E6D00000000
(1619905138.486902) can0 1E0812D0#42ACC56500000000
(1619905138.487044) can0 1E0852D0#415CFE2100000017
(1619905138.487183) can0 1E0892D0#C1457AE400000013
(1619905138.487323) can0 1E08D2D0#422E071100000017
(1619905138.487471) can0 1E0912D0#0000000000000000
(1619905138.487615) can0 1E0952D0#000000000000002C
(1619905138.487760) can0 1E0992D0#000000000000002C
(1619905138.487906) can0 1E0A52D0#000000000000001A
(1619905138.488051) can0 1E0A92D0#000000000000001A
(1619905138.488196) can0 1E0AD2D0#000000000000001A
(1619905138.488341) can0 1E0B12D0#000000000000002A
(1619905138.488486) can0 1E0B52D0#000000000000002A
(1619905138.488631) can0 1E09D2D0#000000000000002C
(1619905138.488778) can0 1E0A12D0#000000000000002A
(1619905138.488924) can0 1E0B92D0#000000000000002A
(1619905138.489071) can0 1E0BD2D0#000000000000002A
(1619905138.489219) can0 1E0C12D0#0000000000000000
(1619905138.489365) can0 1E0C52D0#0000000000000030
(1619905138.489511) can0 1E0C92D0#0000000000000030
(1619905138.489654) can0 1E0CD2D0#40A7C8B000000000
(1619905138.489802) can0 1E0D12D0#0000000000000000
(1619905138.489945) can0 1E0D92D0#4163333300000000
(1619905138.490093) can0 1E0DD2D0#4000000000000000
(1619905138.490237) can0 1E0E12D0#3FFFC6DC00000000
(1619905138.490384) can0 1E0E52D0#0000000000000000
(1619905138.490532) can0 1E0E92D0#000000000000001F
(1619905138.490675) can0 1E0D52D0#418AB0B800000000
(1619905138.490822) can0 1E0ED2D0#0000000000000000
(1619905138.490970) can0 1E0F52D0#47FFFF8000000000
(1619905138.491115) can0 1E0F92D0#4268000000000000
(1619905138.491262) can0 1E0FD2D0#0000000000000000
(1619905138.491408) can0 1E1012D0#0000000000000000
(1619905138.491554) can0 1E1052D0#0000000000000000
(1619905138.491701) can0 1E1092D0#0000000000000000
(1619905138.491847) can0 1E10D2D0#0000000000000000
(1619905138.491993) can0 1E1112D0#0000000000000000
(1619905138.492134) can0 1E1152D0#400D29AA00000000
(1619905138.492274) can0 1E1192D0#400D29AA00000000
(1619905138.492415) can0 1E11D2D0#400D29AA00000000
(1619905138.492556) can0 1E1212D0#400D29AA00000000
(1619905138.492701) can0 1E1252D0#0000000000000000
(1619905138.492847) can0 1E1292D0#0000000000000000
(1619905138.492985) can0 1E0052D0#44672B5B00000021
(1619905138.493131) can0 1E12D2D0#0000000000000000
(1619905138.493276) can0 1E1312D0#0000000000000000
(1619905138.493421) can0 1E1352D0#0000000000000000
(1619905138.493568) can0 1E1392D0#0000000000000000
(1619905138.493716) can0 1E13D2D0#0000000000000000
(1619905138.493862) can0 1E1412D0#0000000000000000
(1619905138.494001) can0 1E1492D0#40153B6F00000000
(1619905138.494140) can0 1E14D2D0#40153B6F00000000
(1619905138.494280) can0 1E1512D0#40153B6F00000000
(1619905138.494426) can0 1E1552D0#0000000000000000
(1619905138.494571) can0 1E1592D0#0000000000000000
(1619905138.494710) can0 1E1452D0#4014EA4600000000
(1619905138.494855) can0 1E15D2D0#0000000000000000
(1619905138.495000) can0 1E1612D0#0000000000000000
(1619905138.495145) can0 1E1652D0#0000000000000000
(1619905138.495291) can0 1E1692D0#0000000000000000
(1619905138.495436) can0 1E16D2D0#0000000000000000
(1619905138.495583) can0 1E1712D0#0000000000000000
(1619905138.495731) can0 1E1752D0#0000000000000000
(1619905138.495877) can0 1E1792D0#0000000000000000
(1619905138.496023) can0 1E17D2D0#0000000000000000
(1619905138.496169) can0 1E1812D0#0000000000000000
(1619905138.496314) can0 1E1852D0#0000000000000000
(1619905138.496459) can0 1E1892D0#0000000000000000
(1619905138.496605) can0 1E18D2D0#0000000000000000
(1619905138.496752) can0 1E1912D0#0000000000000000
(1619905138.496898) can0 1E0F12D0#0000000000000000
(1619905138.497043) can0 1E1952D0#0000000000000000
(1619905138.497188) can0 1E1992D0#0000000000000000
(1619905138.497334) can0 1E19D2D0#0000000000000000
(1619905138.497481) can0 1E1A12D0#0000000000000000
(1619905138.497626) can0 1E1A52D0#0000000000000000
(1619905138.497772) can0 1E1A92D0#0000000000000000
(1619905138.497917) can0 1E1B52D0#8000000000000000
(1619905138.498063) can0 1E1B92D0#8000000000000000
(1619905138.498208) can0 1E1BD2D0#8000000000000000
(1619905138.498354) can0 1E1C12D0#8000000000000000
(1619905138.498499) can0 1E1C52D0#8000000000000000
(1619905138.498647) can0 1E1AD2D0#0000000000000000
(1619905138.498792) can0 1E1B12D0#0000000000000000
(1619905138.498937) can0 1E1CD2D0#8000000000000000
(1619905138.499084) can0 1E1D12D0#8000000000000000
(1619905138.499230) can0 1E1D52D0#0000000000000000
(1619905138.499376) can0 1E1D92D0#0000000000000000
(1619905138.499524) can0 1E1DD2D0#0000000000000000
(1619905138.499670) can0 1E1E12D0#0000000000000000
(1619905138.499818) can0 1E1E52D0#0000000000000000
(1619905138.499964) can0 1E1E92D0#0000000000000000
(1619905138.500110) can0 1E1ED2D0#0000000000000000
(1619905138.500256) can0 1E1F12D0#0000000000000000
(1619905138.500402) can0 1E1F52D0#0000000000000000
(1619905138.500545) can0 1E1F92D0#C0E5208D00000000
(1619905138.500687) can0 1E3C92D0#4974240000000000
(1619905138.500833) can0 1E3CD2D0#0000000000000000
(1619905138.500976) can0 1E3D12D0#4359000000000000
(1619905138.501121) can0 1E3D52D0#40A0000000000000
(1619905138.501267) can0 1E3D92D0#0000000000000000
(1619905138.501414) can0 1E3DD2D0#0000000000000000
(1619905138.501561) can0 1E3E12D0#3F80000000000000
(1619905138.501710) can0 1E3E52D0#0000000000000000
(1619905138.501857) can0 1E3E92D0#0000000000000000
(1619905138.502001) can0 1E3ED2D0#4110000000000000
(1619905138.502143) can0 1E3F12D0#4974DF8000000000
(1619905138.502285) can0 1E3F52D0#4974628000000000
(1619905138.502431) can0 1E3F92D0#0000000000000000
(1619905138.502579) can0 1E3FD2D0#0000000000000000
(1619905138.502725) can0 1E4012D0#0000000000000000
(1619905138.502871) can0 1E4052D0#0000000000000000
(1619905138.503009) can0 1E0052D0#44673DE500000021
(1619905138.503156) can0 1E4092D0#0000000000000000
(1619905138.503301) can0 1E40D2D0#0000000000000000
(1619905138.503447) can0 1E4112D0#0000000000000000
(1619905138.503593) can0 1E4152D0#0000000000000000
(1619905138.503741) can0 1E6E12D0#0000000000000000
(1619905138.503886) can0 1E6ED2D0#0000000000000000
(1619905138.504032) can0 1E6F12D0#0000000000000000
(1619905138.504179) can0 1E6F52D0#0000000000000000
(1619905138.504326) can0 1E6F92D0#0000000000000000
(1619905138.504473) can0 1E6E52D0#0000000000000000
(1619905138.504619) can0 1E6E92D0#0000000000000000
(1619905138.504765) can0 1E6FD2D0#0000000000000000
(1619905138.504910) can0 1E1C92D0#8000000000000000
(1619905138.505057) can0 1E7012D0#0000000000000000
(1619905138.505203) can0 1E7052D0#0000000000000000
(1619905138.505347) can0 1E7092D0#0000000000000000
(1619905138.505494) can0 1E70D2D0#0000000000000000
(1619905138.505639) can0 1E7112D0#0000000000000000
(1619905138.505784) can0 1E7152D0#0000000000000000
(1619905138.505930) can0 1E71D2D0#0000000000000000
(1619905138.506077) can0 1E7212D0#0000000000000000
(1619905138.506221) can0 1E7252D0#0000000000000000
(1619905138.506367) can0 1E7292D0#0000000000000000
(1619905138.506512) can0 1E72D2D0#0000000000000000
(1619905138.506657) can0 1E7192D0#0000000000000000
(1619905138.506803) can0 1E7312D0#0000000000000000
(1619905138.506950) can0 1E7392D0#0000000000000000
(1619905138.507098) can0 1E73D2D0#0000000000000000
(1619905138.507245) can0 1E7412D0#0000000000000000
(1619905138.507392) can0 1E7452D0#0000000000000000
(1619905138.507538) can0 1E7492D0#0000000000000000
(1619905138.507684) can0 1E74D2D0#0000000000000000
(1619905138.507830) can0 1E7512D0#0000000000000000
(1619905138.507975) can0 1E7552D0#0000000000000000
(1619905138.508120) can0 1E7592D0#0000000000000000
(1619905138.508267) can0 1E75D2D0#0000000000000000
(1619905138.508413) can0 1E7612D0#0000000000000000
(1619905138.508557) can0 1E7652D0#0000000000000000
(1619905138.508702) can0 1E7692D0#0000000000000000
(1619905138.508847) can0 1E76D2D0#0000000000000000
(1619905138.508993) can0 1E7712D0#0000000000000000
(1619905138.509141) can0 1E7752D0#0000000000000000
(1619905138.509286) can0 1E7352D0#0000000000000000
(1619905138.509428) can0 1E0252D0#42C83AF400000000
(1619905138.509572) can0 1E0292D0#42C8000000000000
(1619905138.509719) can0 1E02D2D0#0000000000000000
(1619905138.509862) can0 1E0312D0#42C8000000000000
(1619905138.510881) can0 1E0012D0#00000179285FFE1D
(1619905138.511019) can0 1E0052D0#44673DE500000021
(1619905138.511161) can0 1E0092D0#40146FD000000000
(1619905138.511304) can0 1E00D2D0#402F834000000000
(1619905138.511445) can0 1E0112D0#414A014200000000
(1619905138.511595) can0 1E0152D0#4163333300000000
(1619905138.511727) can0 1E0192D0#4163D68000000004
(1619905138.511870) can0 1E01D2D0#4163E7F500000000
(1619905138.512009) can0 1E0352D0#4261C37200000000
(1619905138.512155) can0 1E0392D0#3F80000000000027
(1619905138.512300) can0 1E03D2D0#3F80000000000029
(1619905138.512447) can0 1E0412D0#000000000000000C
(1619905138.512589) can0 1E0452D0#410C55FE00000000
(1619905138.512736) can0 1E0492D0#0000000000000000
(1619905138.512878) can0 1E0212D0#4163E7F500000000
(1619905138.513016) can0 1E0052D0#44673DE500000021
(1619905138.513163) can0 1E04D2D0#0000000000000000
(1619905138.513310) can0 1E0512D0#0000000000000000
(1619905138.513450) can0 1E0552D0#428329F900000000
(1619905138.513591) can0 1E0592D0#417A353600000000
(1619905138.513737) can0 1E05D2D0#0000000000000000
(1619905138.513879) can0 1E0712D0#4212B36200000000
(1619905138.514025) can0 1E0752D0#0000000000000000
(1619905138.514167) can0 1E0792D0#42FB3DC000000000
(1619905138.514308) can0 1E07D2D0#432061D200000000
(1619905138.514456) can0 1E0612D0#0000000000000000
(1619905138.514598) can0 1E0692D0#41AA2F6000000000
(1619905138.514738) can0 1E06D2D0#445A6CFD00000000
(1619905138.514878) can0 1E0812D0#42ACCA2100000000
(1619905138.515018) can0 1E0852D0#415CAAD200000000
(1619905138.515158) can0 1E0892D0#C1458AA000000013
(1619905138.515299) can0 1E08D2D0#422DF43F00000017
(1619905138.515446) can0 1E0912D0#0000000000000000
(1619905138.515591) can0 1E0952D0#000000000000002C
(1619905138.515736) can0 1E0992D0#000000000000002C
(1619905138.515881) can0 1E0A52D0#000000000000001A
(1619905138.516026) can0 1E0A92D0#000000000000001A
(1619905138.516172) can0 1E0AD2D0#000000000000001A
(1619905138.516317) can0 1E0B12D0#000000000000002A
(1619905138.516462) can0 1E0B52D0#000000000000002A
(1619905138.516607) can0 1E09D2D0#000000000000002C
(1619905138.516753) can0 1E0A12D0#000000000000002A
(1619905138.516899) can0 1E0B92D0#000000000000002A
(1619905138.517046) can0 1E0BD2D0#000000000000002A
(1619905138.517195) can0 1E0C12D0#0000000000000000
(1619905138.517341) can0 1E0C52D0#0000000000000030
(1619905138.517487) can0 1E0C92D0#0000000000000030
(1619905138.517628) can0 1E0CD2D0#40A55D2600000000
(1619905138.517775) can0 1E0D12D0#0000000000000000
(1619905138.517918) can0 1E0D92D0#4163333300000000
(1619905138.518066) can0 1E0DD2D0#4000000000000000
(1619905138.518209) can0 1E0E12D0#400013B600000000
(1619905138.518357) can0 1E0E52D0#0000000000000000
(1619905138.518506) can0 1E0E92D0#000000000000001F
(1619905138.518648) can0 1E0D52D0#418A479C00000000
(1619905138.518795) can0 1E0ED2D0#0000000000000000
(1619905138.518942) can0 1E0F52D0#47FFFF8000000000
(1619905138.519088) can0 1E0F92D0#4268000000000000
(1619905138.519235) can0 1E0FD2D0#0000000000000000
(1619905138.519381) can0 1E1012D0#0000000000000000
(1619905138.519527) can0 1E1052D0#0000000000000000
(1619905138.519673) can0 1E1092D0#0000000000000000
(1619905138.519819) can0 1E10D2D0#0000000000000000
(1619905138.519966) can0 1E1112D0#0000000000000000
(1619905138.520109) can0 1E1152D0#400BF31F00000000
(1619905138.520251) can0 1E1192D0#400BF31F00000000
(1619905138.520394) can0 1E11D2D0#400BF31F00000000
(1619905138.520537) can0 1E1212D0#400BF31F00000000
(1619905138.520682) can0 1E1252D0#0000000000000000
(1619905138.520828) can0 1E1292D0#0000000000000000
(1619905138.520974) can0 1E12D2D0#0000000000000000
(1619905138.521119) can0 1E1312D0#0000000000000000
(1619905138.521264) can0 1E1352D0#0000000000000000
(1619905138.521411) can0 1E1392D0#0000000000000000
(1619905138.521558) can0 1E13D2D0#0000000000000000
(1619905138.521705) can0 1E1412D0#0000000000000000
(1619905138.521847) can0 1E1452D0#4014380800000000
(1619905138.521988) can0 1E1492D0#4013E98300000000
(1619905138.522131) can0 1E14D2D0#4013E98300000000
(1619905138.522272) can0 1E1512D0#4013E98300000000
(1619905138.522417) can0 1E1552D0#0000000000000000
(1619905138.522562) can0 1E1592D0#0000000000000000
(1619905138.522707) can0 1E15D2D0#0000000000000000
(1619905138.522852) can0 1E1612D0#0000000000000000
(1619905138.522993) can0 1E0052D0#4466D96000000021
(1619905138.523139) can0 1E1652D0#0000000000000000
(1619905138.523284) can0 1E1692D0#0000000000000000
(1619905138.523429) can0 1E16D2D0#0000000000000000
(1619905138.523575) can0 1E1712D0#0000000000000000
(1619905138.523723) can0 1E1752D0#0000000000000000
(1619905138.523869) can0 1E1792D0#0000000000000000
(1619905138.524016) can0 1E1812D0#0000000000000000
(1619905138.524161) can0 1E1852D0#0000000000000000
(1619905138.524306) can0 1E1892D0#0000000000000000
(1619905138.524451) can0 1E18D2D0#0000000000000000
(1619905138.524597) can0 1E17D2D0#0000000000000000
(1619905138.524743) can0 1E1912D0#0000000000000000
(1619905138.524890) can0 1E0F12D0#0000000000000000
(1619905138.525036) can0 1E1952D0#0000000000000000
(1619905138.525181) can0 1E1992D0#0000000000000000
(1619905138.525327) can0 1E19D2D0#0000000000000000
(1619905138.525475) can0 1E1A12D0#0000000000000000
(1619905138.525619) can0 1E1A52D0#0000000000000000
(1619905138.525764) can0 1E1A92D0#0000000000000000
(1619905138.525910) can0 1E1B12D0#0000000000000000
(1619905138.526055) can0 1E1B52D0#8000000000000000
(1619905138.526201) can0 1E1B92D0#8000000000000000
(1619905138.526346) can0 1E1BD2D0#8000000000000000
(1619905138.526492) can0 1E1C12D0#8000000000000000
(1619905138.526639) can0 1E1AD2D0#0000000000000000
(1619905138.526785) can0 1E1C52D0#8000000000000000
(1619905138.526930) can0 1E1CD2D0#8000000000000000
(1619905138.527076) can0 1E1D12D0#8000000000000000
(1619905138.527223) can0 1E1D52D0#0000000000000000
(1619905138.527369) can0 1E1D92D0#0000000000000000
(1619905138.527516) can0 1E1DD2D0#0000000000000000
(1619905138.527662) can0 1E1E12D0#0000000000000000
(1619905138.527811) can0 1E1E52D0#0000000000000000
(1619905138.527957) can0 1E1E92D0#0000000000000000
(1619905138.528103) can0 1E1ED2D0#0000000000000000
(1619905138.528249) can0 1E1F12D0#0000000000000000
(1619905138.528395) can0 1E1F52D0#0000000000000000
(1619905138.528538) can0 1E1F92D0#C0E682BE00000000
(1619905138.528681) can0 1E3C92D0#4974240000000000
(1619905138.528827) can0 1E3CD2D0#0000000000000000
(1619905138.528969) can0 1E3D12D0#435A000000000000
(1619905138.529114) can0 1E3D52D0#40A0000000000000
(1619905138.529260) can0 1E3D92D0#0000000000000000
(1619905138.529406) can0 1E3DD2D0#0000000000000000
(1619905138.529553) can0 1E3E12D0#3F80000000000000
(1619905138.529701) can0 1E3E52D0#0000000000000000
(1619905138.529850) can0 1E3E92D0#0000000000000000
(1619905138.529994) can0 1E3ED2D0#4110000000000000
(1619905138.530137) can0 1E3F12D0#4974DF8000000000
(1619905138.530277) can0 1E3F52D0#4974628000000000
(1619905138.530423) can0 1E3F92D0#0000000000000000
(1619905138.530571) can0 1E3FD2D0#0000000000000000
(1619905138.530718) can0 1E4012D0#0000000000000000
(1619905138.530864) can0 1E4052D0#0000000000000000
(1619905138.531010) can0 1E4092D0#0000000000000000
(1619905138.531156) can0 1E40D2D0#0000000000000000
(1619905138.531302) can0 1E4112D0#0000000000000000
(1619905138.531447) can0 1E4152D0#0000000000000000
(1619905138.531599) can0 1E6E12D0#0000000000000000
(1619905138.531741) can0 1E6E52D0#0000000000000000
(1619905138.531887) can0 1E6ED2D0#0000000000000000
(1619905138.532033) can0 1E6F12D0#0000000000000000
(1619905138.532180) can0 1E6F52D0#0000000000000000
(1619905138.532327) can0 1E6F92D0#0000000000000000
(1619905138.532474) can0 1E6FD2D0#0000000000000000
(1619905138.532620) can0 1E6E92D0#0000000000000000
(1619905138.532767) can0 1E7012D0#0000000000000000
(1619905138.532907) can0 1E0052D0#4466D96000000021
(1619905138.533052) can0 1E7052D0#0000000000000000
(1619905138.533197) can0 1E7092D0#0000000000000000
(1619905138.533343) can0 1E70D2D0#0000000000000000
(1619905138.533489) can0 1E7112D0#0000000000000000
(1619905138.533634) can0 1E7152D0#0000000000000000
(1619905138.533779) can0 1E7192D0#0000000000000000
(1619905138.533925) can0 1E7212D0#0000000000000000
(1619905138.534070) can0 1E7252D0#0000000000000000
(1619905138.534215) can0 1E7292D0#0000000000000000
(1619905138.534360) can0 1E72D2D0#0000000000000000
(1619905138.534507) can0 1E7312D0#0000000000000000
(1619905138.534653) can0 1E71D2D0#0000000000000000
(1619905138.534799) can0 1E7352D0#0000000000000000
(1619905138.534945) can0 1E7392D0#0000000000000000
(1619905138.535093) can0 1E73D2D0#0000000000000000
(1619905138.535239) can0 1E7412D0#0000000000000000
(1619905138.535386) can0 1E7452D0#0000000000000000
(1619905138.535533) can0 1E7492D0#0000000000000000
(1619905138.535679) can0 1E74D2D0#0000000000000000
(1619905138.535825) can0 1E7512D0#0000000000000000
(1619905138.535970) can0 1E7552D0#0000000000000000
(1619905138.536115) can0 1E7592D0#0000000000000000
(1619905138.536261) can0 1E75D2D0#0000000000000000
(1619905138.536407) can0 1E7612D0#0000000000000000
(1619905138.536552) can0 1E7652D0#0000000000000000
(1619905138.536697) can0 1E7692D0#0000000000000000
(1619905138.536842) can0 1E76D2D0#0000000000000000
(1619905138.536988) can0 1E7712D0#0000000000000000
(1619905138.537136) can0 1E7752D0#0000000000000000
(1619905138.537281) can0 1E1C92D0#8000000000000000
(1619905138.537422) can0 1E0252D0#42C83B9700000000
(1619905138.537566) can0 1E0292D0#42C8000000000000
(1619905138.537713) can0 1E02D2D0#0000000000000000
(1619905138.537856) can0 1E0312D0#42C8000000000000
(1619905138.538864) can0 1E0012D0#00000179285FFE39
(1619905138.539003) can0 1E0052D0#446645B600000021
(1619905138.539145) can0 1E0092D0#4014D4E800000000
(1619905138.539287) can0 1E00D2D0#402F77D300000000
(1619905138.539427) can0 1E0112D0#4149B26300000000
(1619905138.539567) can0 1E0152D0#4163333300000000
(1619905138.539708) can0 1E0192D0#41639CCA00000004
(1619905138.539849) can0 1E01D2D0#41639CCA00000000
(1619905138.539989) can0 1E0352D0#4261E3BE00000000
(1619905138.540135) can0 1E0392D0#3F80000000000027
(1619905138.540281) can0 1E03D2D0#3F80000000000029
(1619905138.540428) can0 1E0412D0#000000000000000C
(1619905138.540569) can0 1E0452D0#410BE11200000000
(1619905138.540717) can0 1E0492D0#0000000000000000
(1619905138.540858) can0 1E0212D0#41639CCA00000000
(1619905138.541005) can0 1E04D2D0#0000000000000000
(1619905138.541151) can0 1E0512D0#0000000000000000
(1619905138.541292) can0 1E0552D0#4282C54100000000
(1619905138.541434) can0 1E0592D0#417D9A5300000000
(1619905138.541579) can0 1E05D2D0#0000000000000000
(1619905138.541728) can0 1E0612D0#0000000000000000
(1619905138.541868) can0 1E0712D0#4212E9B800000000
(1619905138.542015) can0 1E0752D0#0000000000000000
(1619905138.542156) can0 1E0792D0#42FB13B500000000
(1619905138.542299) can0 1E07D2D0#4320650500000000
(1619905138.542440) can0 1E0812D0#42ACC06100000000
(1619905138.542581) can0 1E0692D0#41AA52A100000000
(1619905138.542720) can0 1E06D2D0#445A6AE100000000
(1619905138.542860) can0 1E0852D0#415CB63500000000
(1619905138.542999) can0 1E0052D0#446645B600000021
(1619905138.543139) can0 1E0892D0#C14592C000000013
(1619905138.543280) can0 1E08D2D0#422DD7F000000017
(1619905138.543427) can0 1E0912D0#0000000000000000
(1619905138.543573) can0 1E0952D0#000000000000002C
(1619905138.543718) can0 1E0992D0#000000000000002C
(1619905138.543863) can0 1E0A92D0#000000000000001A
(1619905138.544008) can0 1E0AD2D0#000000000000001A
(1619905138.544153) can0 1E0B12D0#000000000000002A
(1619905138.544298) can0 1E0B52D0#000000000000002A
(1619905138.544444) can0 1E09D2D0#000000000000002C
(1619905138.544590) can0 1E0A12D0#000000000000002A
(1619905138.544735) can0 1E0A52D0#000000000000001A
(1619905138.544882) can0 1E0B92D0#000000000000002A
(1619905138.545028) can0 1E0BD2D0#000000000000002A
(1619905138.545176) can0 1E0C12D0#0000000000000000
(1619905138.545322) can0 1E0C52D0#0000000000000030
(1619905138.545469) can0 1E0C92D0#0000000000000030
(1619905138.545613) can0 1E0CD2D0#40A4F78300000000
(1619905138.545760) can0 1E0D12D0#0000000000000000
(1619905138.545903) can0 1E0D92D0#4163333300000000
(1619905138.546051) can0 1E0DD2D0#4000000000000000
(1619905138.546197) can0 1E0E12D0#40000D1A00000000
(1619905138.546344) can0 1E0E52D0#0000000000000000
(1619905138.546492) can0 1E0E92D0#000000000000001F
(1619905138.546635) can0 1E0D52D0#418A49F600000000
(1619905138.546782) can0 1E0ED2D0#0000000000000000
(1619905138.546929) can0 1E0F52D0#47FFFF8000000000
(1619905138.547074) can0 1E0F92D0#4268000000000000
(1619905138.547223) can0 1E0FD2D0#0000000000000000
(1619905138.547368) can0 1E1012D0#0000000000000000
(1619905138.547514) can0 1E1052D0#0000000000000000
(1619905138.547660) can0 1E1092D0#0000000000000000
(1619905138.547806) can0 1E10D2D0#0000000000000000
(1619905138.547952) can0 1E1112D0#0000000000000000
(1619905138.548092) can0 1E1152D0#400C36CF00000000
(1619905138.548233) can0 1E1192D0#400C36CF00000000
(1619905138.548375) can0 1E11D2D0#400C36CF00000000
(1619905138.548516) can0 1E1212D0#400C36CF00000000
(1619905138.548661) can0 1E1252D0#0000000000000000
(1619905138.548806) can0 1E1292D0#0000000000000000
(1619905138.548952) can0 1E12D2D0#0000000000000000
(1619905138.549097) can0 1E1312D0#0000000000000000
(1619905138.549243) can0 1E1352D0#0000000000000000
(1619905138.549390) can0 1E1392D0#0000000000000000
(1619905138.549538) can0 1E13D2D0#0000000000000000
(1619905138.549683) can0 1E1412D0#0000000000000000
(1619905138.549824) can0 1E1452D0#4014B37C00000000
(1619905138.549965) can0 1E1492D0#40154A5C00000000
(1619905138.550105) can0 1E14D2D0#40154A5C00000000
(1619905138.550246) can0 1E1512D0#40154A5C00000000
(1619905138.550391) can0 1E1552D0#0000000000000000
(1619905138.550536) can0 1E1592D0#0000000000000000
(1619905138.550681) can0 1E15D2D0#0000000000000000
(1619905138.550826) can0 1E1612D0#0000000000000000
(1619905138.550971) can0 1E1652D0#0000000000000000
(1619905138.551118) can0 1E1692D0#0000000000000000
(1619905138.551263) can0 1E16D2D0#0000000000000000
(1619905138.551409) can0 1E1712D0#0000000000000000
(1619905138.551557) can0 1E1752D0#0000000000000000
(1619905138.551703) can0 1E1792D0#0000000000000000
(1619905138.551850) can0 1E17D2D0#0000000000000000
(1619905138.551996) can0 1E1812D0#0000000000000000
(1619905138.552141) can0 1E1852D0#0000000000000000
(1619905138.552286) can0 1E1892D0#0000000000000000
(1619905138.552431) can0 1E18D2D0#0000000000000000
(1619905138.552577) can0 1E1912D0#0000000000000000
(1619905138.552722) can0 1E1952D0#0000000000000000
(1619905138.552870) can0 1E0F12D0#0000000000000000
(1619905138.553009) can0 1E0052D0#4466F67200000021
(1619905138.553154) can0 1E1992D0#0000000000000000
(1619905138.553300) can0 1E19D2D0#0000000000000000
(1619905138.553447) can0 1E1A12D0#0000000000000000
(1619905138.553592) can0 1E1A52D0#0000000000000000
(1619905138.553737) can0 1E1A92D0#0000000000000000
(1619905138.553884) can0 1E1B92D0#8000000000000000
(1619905138.554029) can0 1E1BD2D0#8000000000000000
(1619905138.554176) can0 1E1C12D0#8000000000000000
(1619905138.554320) can0 1E1C52D0#8000000000000000
(1619905138.554467) can0 1E1AD2D0#0000000000000000
(1619905138.554612) can0 1E1B12D0#0000000000000000
(1619905138.554757) can0 1E1B52D0#8000000000000000
(1619905138.554903) can0 1E1CD2D0#8000000000000000
(1619905138.555049) can0 1E1D12D0#8000000000000000
(1619905138.555196) can0 1E1D52D0#0000000000000000
(1619905138.555342) can0 1E1D92D0#0000000000000000
(1619905138.555489) can0 1E1DD2D0#0000000000000000
(1619905138.555635) can0 1E1E12D0#0000000000000000
(1619905138.555783) can0 1E1E52D0#0000000000000000
(1619905138.555930) can0 1E1E92D0#0000000000000000
(1619905138.556076) can0 1E1ED2D0#0000000000000000
(1619905138.556222) can0 1E1F12D0#0000000000000000
(1619905138.556368) can0 1E1F52D0#0000000000000000
(1619905138.556510) can0 1E1F92D0#C0E5DB3B00000000
(1619905138.556651) can0 1E3C92D0#4974240000000000
(1619905138.556797) can0 1E3CD2D0#0000000000000000
(1619905138.556940) can0 1E3D12D0#435A000000000000
(1619905138.557085) can0 1E3D52D0#40A0000000000000
(1619905138.557231) can0 1E3D92D0#0000000000000000
(1619905138.557377) can0 1E3DD2D0#0000000000000000
(1619905138.557524) can0 1E3E12D0#3F80000000000000
(1619905138.557672) can0 1E3E52D0#0000000000000000
(1619905138.557820) can0 1E3E92D0#0000000000000000
(1619905138.557965) can0 1E3ED2D0#4110000000000000
(1619905138.558107) can0 1E3F12D0#4974DF8000000000
(1619905138.558248) can0 1E3F52D0#4974628000000000
(1619905138.558394) can0 1E3F92D0#0000000000000000
(1619905138.558542) can0 1E3FD2D0#0000000000000000
(1619905138.558689) can0 1E4012D0#0000000000000000
(1619905138.558836) can0 1E4052D0#0000000000000000
(1619905138.558981) can0 1E4092D0#0000000000000000
(1619905138.559127) can0 1E40D2D0#0000000000000000
(1619905138.559273) can0 1E4112D0#0000000000000000
(1619905138.559418) can0 1E4152D0#0000000000000000
(1619905138.559565) can0 1E6E12D0#0000000000000000
(1619905138.559712) can0 1E6E52D0#0000000000000000
(1619905138.559858) can0 1E6ED2D0#0000000000000000
(1619905138.560004) can0 1E6F12D0#0000000000000000
(1619905138.560151) can0 1E6F52D0#0000000000000000
(1619905138.560298) can0 1E6F92D0#0000000000000000
(1619905138.560444) can0 1E6FD2D0#0000000000000000
(1619905138.560590) can0 1E6E92D0#0000000000000000
(1619905138.560737) can0 1E7012D0#0000000000000000
(1619905138.560883) can0 1E7052D0#0000000000000000
(1619905138.561028) can0 1E7092D0#0000000000000000
(1619905138.561175) can0 1E70D2D0#0000000000000000
(1619905138.561319) can0 1E7112D0#0000000000000000
(1619905138.561464) can0 1E7152D0#0000000000000000
(1619905138.561618) can0 1E7192D0#0000000000000000
(1619905138.561756) can0 1E71D2D0#0000000000000000
(1619905138.561902) can0 1E7212D0#0000000000000000
(1619905138.562047) can0 1E7252D0#0000000000000000
(1619905138.562192) can0 1E7292D0#0000000000000000
(1619905138.562337) can0 1E72D2D0#0000000000000000
(1619905138.562483) can0 1E7312D0#0000000000000000
(1619905138.562628) can0 1E7352D0#0000000000000000
(1619905138.562776) can0 1E7392D0#0000000000000000
(1619905138.562915) can0 1E0052D0#4466F67200000021
(1619905138.563063) can0 1E73D2D0#0000000000000000
(1619905138.563209) can0 1E7412D0#0000000000000000
(1619905138.563356) can0 1E7452D0#0000000000000000
(1619905138.563503) can0 1E7492D0#0000000000000000
(1619905138.563648) can0 1E74D2D0#0000000000000000
(1619905138.563795) can0 1E7512D0#0000000000000000
(1619905138.563940) can0 1E7592D0#0000000000000000
(1619905138.564086) can0 1E75D2D0#0000000000000000
(1619905138.564231) can0 1E7612D0#0000000000000000
(1619905138.564376) can0 1E7652D0#0000000000000000
(1619905138.564521) can0 1E7692D0#0000000000000000
(1619905138.564667) can0 1E7552D0#0000000000000000
(1619905138.564812) can0 1E76D2D0#0000000000000000
(1619905138.564958) can0 1E7712D0#0000000000000000
(1619905138.565105) can0 1E7752D0#0000000000000000
(1619905138.565250) can0 1E1C92D0#8000000000000000
(1619905138.565390) can0 1E0252D0#42C83B7700000000
(1619905138.565535) can0 1E0292D0#42C8000000000000
(1619905138.565682) can0 1E02D2D0#0000000000000000
(1619905138.565826) can0 1E0312D0#42C8000000000000
(1619905138.566845) can0 1E0012D0#00000179285FFE55
(1619905138.566985) can0 1E0052D0#4467E7A900000021
(1619905138.567126) can0 1E0092D0#401757FD00000000
(1619905138.567267) can0 1E00D2D0#4034983A00000000
(1619905138.567408) can0 1E0112D0#414A725900000000
(1619905138.567548) can0 1E0152D0#4163333300000000
(1619905138.567688) can0 1E0192D0#416435C600000004
(1619905138.567828) can0 1E01D2D0#416435C600000000
(1619905138.567970) can0 1E0352D0#4261EE0200000000
(1619905138.568116) can0 1E0392D0#3F80000000000027
(1619905138.568261) can0 1E03D2D0#3F80000000000029
(1619905138.568408) can0 1E0412D0#000000000000000C
(1619905138.568549) can0 1E0452D0#411064E500000000
(1619905138.568696) can0 1E0492D0#0000000000000000
(1619905138.568836) can0 1E0212D0#416435C600000000
(1619905138.568985) can0 1E04D2D0#0000000000000000
(1619905138.569130) can0 1E0512D0#0000000000000000
(1619905138.569269) can0 1E0552D0#4284E3D600000000
(1619905138.569410) can0 1E0592D0#41793BD800000000
(1619905138.569556) can0 1E05D2D0#0000000000000000
(1619905138.569703) can0 1E0612D0#0000000000000000
(1619905138.569845) can0 1E0712D0#42149DD400000000
(1619905138.569992) can0 1E0752D0#0000000000000000
(1619905138.570135) can0 1E0792D0#42FAFDFD00000000
(1619905138.570277) can0 1E07D2D0#432061B800000000
(1619905138.570419) can0 1E0812D0#42ACC03300000000
(1619905138.570561) can0 1E0692D0#41A74F7D00000000
(1619905138.570700) can0 1E06D2D0#445A6D2B00000000
(1619905138.570842) can0 1E0852D0#415CB5B900000000
(1619905138.570984) can0 1E0892D0#C145825000000013
(1619905138.571123) can0 1E08D2D0#422DDEC900000017
(1619905138.571271) can0 1E0912D0#0000000000000000
(1619905138.571415) can0 1E0952D0#000000000000002C
(1619905138.571560) can0 1E0992D0#000000000000002C
(1619905138.571706) can0 1E09D2D0#000000000000002C
(1619905138.571851) can0 1E0A92D0#000000000000001A
(1619905138.571996) can0 1E0AD2D0#000000000000001A
(1619905138.572141) can0 1E0B12D0#000000000000002A
(1619905138.572286) can0 1E0B52D0#000000000000002A
(1619905138.572432) can0 1E0B92D0#000000000000002A
(1619905138.572578) can0 1E0A12D0#000000000000002A
(1619905138.572724) can0 1E0A52D0#000000000000001A
(1619905138.572864) can0 1E0052D0#4467E7A900000021
(1619905138.573012) can0 1E0C12D0#0000000000000000
(1619905138.573158) can0 1E0C52D0#0000000000000030
(1619905138.573304) can0 1E0C92D0#0000000000000030
(1619905138.573447) can0 1E0CD2D0#40A9865A00000000
(1619905138.573594) can0 1E0D12D0#0000000000000000
(1619905138.573737) can0 1E0D52D0#418AECA400000000
(1619905138.573885) can0 1E0DD2D0#4000000000000000
(1619905138.574029) can0 1E0E12D0#40002C5F00000000
(1619905138.574176) can0 1E0E52D0#0000000000000000
(1619905138.574324) can0 1E0E92D0#000000000000001F
(1619905138.574472) can0 1E0ED2D0#0000000000000000
(1619905138.574615) can0 1E0D92D0#4163333300000000
(1619905138.574762) can0 1E0F12D0#0000000000000000
(1619905138.574909) can0 1E0F52D0#47FFFF8000000000
(1619905138.575054) can0 1E0F92D0#4268000000000000
(1619905138.575201) can0 1E0FD2D0#0000000000000000
(1619905138.575347) can0 1E1012D0#0000000000000000
(1619905138.575494) can0 1E1052D0#0000000000000000
(1619905138.575640) can0 1E1092D0#0000000000000000
(1619905138.575786) can0 1E10D2D0#0000000000000000
(1619905138.575933) can0 1E1112D0#0000000000000000
(1619905138.576073) can0 1E1152D0#400ED69600000000
(1619905138.576213) can0 1E1192D0#400ED69600000000
(1619905138.576354) can0 1E11D2D0#400ED69600000000
(1619905138.576496) can0 1E1212D0#400ED69600000000
(1619905138.576641) can0 1E1252D0#0000000000000000
(1619905138.576786) can0 1E1292D0#0000000000000000
(1619905138.576932) can0 1E12D2D0#0000000000000000
(1619905138.577077) can0 1E1312D0#0000000000000000
(1619905138.577223) can0 1E1352D0#0000000000000000
(1619905138.577370) can0 1E1392D0#0000000000000000
(1619905138.577517) can0 1E13D2D0#0000000000000000
(1619905138.577663) can0 1E1412D0#0000000000000000
(1619905138.577802) can0 1E1452D0#40161A6700000000
(1619905138.577941) can0 1E1492D0#40161D6E00000000
(1619905138.578080) can0 1E14D2D0#40161D6E00000000
(1619905138.578220) can0 1E1512D0#40161D6E00000000
(1619905138.578365) can0 1E1552D0#0000000000000000
(1619905138.578510) can0 1E1592D0#0000000000000000
(1619905138.578655) can0 1E15D2D0#0000000000000000
(1619905138.578800) can0 1E1612D0#0000000000000000
(1619905138.578945) can0 1E1652D0#0000000000000000
(1619905138.579091) can0 1E1692D0#0000000000000000
(1619905138.579237) can0 1E16D2D0#0000000000000000
(1619905138.579383) can0 1E1712D0#0000000000000000
(1619905138.579531) can0 1E1752D0#0000000000000000
(1619905138.579677) can0 1E1792D0#0000000000000000
(1619905138.579823) can0 1E17D2D0#0000000000000000
(1619905138.579969) can0 1E1812D0#0000000000000000
(1619905138.580114) can0 1E1852D0#0000000000000000
(1619905138.580260) can0 1E1892D0#0000000000000000
(1619905138.580405) can0 1E18D2D0#0000000000000000
(1619905138.580552) can0 1E1912D0#0000000000000000
(1619905138.580696) can0 1E1952D0#0000000000000000
(1619905138.580843) can0 1E0BD2D0#000000000000002A
(1619905138.580988) can0 1E1992D0#0000000000000000
(1619905138.581134) can0 1E19D2D0#0000000000000000
(1619905138.581282) can0 1E1A12D0#0000000000000000
(1619905138.581427) can0 1E1A52D0#0000000000000000
(1619905138.581572) can0 1E1A92D0#0000000000000000
(1619905138.581719) can0 1E1AD2D0#0000000000000000
(1619905138.581865) can0 1E1B92D0#8000000000000000
(1619905138.582011) can0 1E1BD2D0#8000000000000000
(1619905138.582157) can0 1E1C12D0#8000000000000000
(1619905138.582302) can0 1E1C52D0#8000000000000000
(1619905138.582447) can0 1E1C92D0#8000000000000000
(1619905138.582592) can0 1E1B12D0#0000000000000000
(1619905138.582737) can0 1E1B52D0#8000000000000000
(1619905138.582876) can0 1E0052D0#4468492800000021
(1619905138.583022) can0 1E1D12D0#8000000000000000
(1619905138.583169) can0 1E1D52D0#0000000000000000
(1619905138.583315) can0 1E1D92D0#0000000000000000
(1619905138.583462) can0 1E1DD2D0#0000000000000000
(1619905138.583608) can0 1E1E12D0#0000000000000000
(1619905138.583756) can0 1E1E52D0#0000000000000000
(1619905138.583902) can0 1E1ED2D0#0000000000000000
(1619905138.584049) can0 1E1F12D0#0000000000000000
(1619905138.584195) can0 1E1F52D0#0000000000000000
(1619905138.584335) can0 1E1F92D0#C0E50D1900000000
(1619905138.584477) can0 1E3C92D0#4974240000000000
(1619905138.584623) can0 1E1E92D0#0000000000000000
(1619905138.584769) can0 1E3CD2D0#0000000000000000
(1619905138.584911) can0 1E3D12D0#435A000000000000
(1619905138.585057) can0 1E3D52D0#40A0000000000000
(1619905138.585204) can0 1E3D92D0#0000000000000000
(1619905138.585349) can0 1E3DD2D0#0000000000000000
(1619905138.585496) can0 1E3E12D0#3F80000000000000
(1619905138.585644) can0 1E3E52D0#0000000000000000
(1619905138.585793) can0 1E3E92D0#0000000000000000
(1619905138.585936) can0 1E3ED2D0#4110000000000000
(1619905138.586079) can0 1E3F12D0#4974DF8000000000
(1619905138.586220) can0 1E3F52D0#4974628000000000
(1619905138.586366) can0 1E3F92D0#0000000000000000
(1619905138.586514) can0 1E3FD2D0#0000000000000000
(1619905138.586660) can0 1E4012D0#0000000000000000
(1619905138.586806) can0 1E4052D0#0000000000000000
(1619905138.586953) can0 1E4092D0#0000000000000000
(1619905138.587099) can0 1E40D2D0#0000000000000000
(1619905138.587245) can0 1E4112D0#0000000000000000
(1619905138.587390) can0 1E4152D0#0000000000000000
(1619905138.587538) can0 1E6E12D0#0000000000000000
(1619905138.587683) can0 1E6E52D0#0000000000000000
(1619905138.587829) can0 1E6ED2D0#0000000000000000
(1619905138.587976) can0 1E6F12D0#0000000000000000
(1619905138.588123) can0 1E6F52D0#0000000000000000
(1619905138.588270) can0 1E6F92D0#0000000000000000
(1619905138.588416) can0 1E6FD2D0#0000000000000000
(1619905138.588562) can0 1E6E92D0#0000000000000000
(1619905138.588709) can0 1E7012D0#0000000000000000
(1619905138.588854) can0 1E1CD2D0#8000000000000000
(1619905138.589000) can0 1E7052D0#0000000000000000
(1619905138.589145) can0 1E7092D0#0000000000000000
(1619905138.589291) can0 1E70D2D0#0000000000000000
(1619905138.589436) can0 1E7112D0#0000000000000000
(1619905138.589581) can0 1E7152D0#0000000000000000
(1619905138.589726) can0 1E7192D0#0000000000000000
(1619905138.589874) can0 1E7212D0#0000000000000000
(1619905138.590018) can0 1E7252D0#0000000000000000
(1619905138.590163) can0 1E7292D0#0000000000000000
(1619905138.590308) can0 1E72D2D0#0000000000000000
(1619905138.590454) can0 1E7312D0#0000000000000000
(1619905138.590600) can0 1E71D2D0#0000000000000000
(1619905138.590746) can0 1E7352D0#0000000000000000
(1619905138.590894) can0 1E73D2D0#0000000000000000
(1619905138.591040) can0 1E7412D0#0000000000000000
(1619905138.591187) can0 1E7452D0#0000000000000000
(1619905138.591333) can0 1E7492D0#0000000000000000
(1619905138.591479) can0 1E74D2D0#0000000000000000
(1619905138.591636) can0 1E7512D0#0000000000000000
(1619905138.591771) can0 1E7552D0#0000000000000000
(1619905138.591916) can0 1E7592D0#0000000000000000
(1619905138.592062) can0 1E75D2D0#0000000000000000
(1619905138.592208) can0 1E7612D0#0000000000000000
(1619905138.592352) can0 1E7652D0#0000000000000000
(1619905138.592497) can0 1E7692D0#0000000000000000
(1619905138.592642) can0 1E76D2D0#0000000000000000
(1619905138.592789) can0 1E7712D0#0000000000000000
(1619905138.592927) can0 1E0052D0#4468492800000021
(1619905138.593074) can0 1E7752D0#0000000000000000
(1619905138.593221) can0 1E7392D0#0000000000000000
(1619905138.593363) can0 1E0252D0#42C83CB900000000
(1619905138.593507) can0 1E0292D0#42C8000000000000
(1619905138.593655) can0 1E02D2D0#0000000000000000
(1619905138.593798) can0 1E0312D0#42C8000000000000
(1619905138.594826) can0 1E0012D0#00000179285FFE71
(1619905138.594965) can0 1E0052D0#4468492800000021
(1619905138.595106) can0 1E0092D0#4016862A00000000
(1619905138.595248) can0 1E00D2D0#403382F900000000
(1619905138.595390) can0 1E0112D0#414AA1A300000000
(1619905138.595529) can0 1E0152D0#4163333300000000
(1619905138.595669) can0 1E0192D0#4164307100000004
(1619905138.595810) can0 1E01D2D0#41644C4100000000
(1619905138.595950) can0 1E0352D0#4261E6B800000000
(1619905138.596097) can0 1E0392D0#3F80000000000027
(1619905138.596242) can0 1E03D2D0#3F80000000000029
(1619905138.596389) can0 1E0412D0#000000000000000C
(1619905138.596530) can0 1E0452D0#410FBB1100000000
(1619905138.596677) can0 1E0492D0#0000000000000000
(1619905138.596818) can0 1E0212D0#41644C4100000000
(1619905138.596965) can0 1E04D2D0#0000000000000000
(1619905138.597112) can0 1E0512D0#0000000000000000
(1619905138.597251) can0 1E0552D0#4284B26500000000
(1619905138.597393) can0 1E0592D0#4177C56100000000
(1619905138.597539) can0 1E05D2D0#0000000000000000
(1619905138.597687) can0 1E0612D0#0000000000000000
(1619905138.597827) can0 1E0712D0#42142B7700000000
(1619905138.597975) can0 1E0752D0#0000000000000000
(1619905138.598117) can0 1E0792D0#42FB209300000000
(1619905138.598258) can0 1E07D2D0#4320622900000000
(1619905138.598399) can0 1E0812D0#42ACBCFB00000000
(1619905138.598539) can0 1E0692D0#41A8613100000000
(1619905138.598679) can0 1E06D2D0#445A6CED00000000
(1619905138.598822) can0 1E0852D0#415C881D00000000
(1619905138.598961) can0 1E0892D0#C145486D00000013
(1619905138.599100) can0 1E08D2D0#422DDC1600000017
(1619905138.599247) can0 1E0912D0#0000000000000000
(1619905138.599392) can0 1E0952D0#000000000000002C
(1619905138.599537) can0 1E0992D0#000000000000002C
(1619905138.599682) can0 1E09D2D0#000000000000002C
(1619905138.599828) can0 1E0A92D0#000000000000001A
(1619905138.599973) can0 1E0AD2D0#000000000000001A
(1619905138.600118) can0 1E0B12D0#000000000000002A
(1619905138.600263) can0 1E0B52D0#000000000000002A
(1619905138.600409) can0 1E0B92D0#000000000000002A
(1619905138.600555) can0 1E0A12D0#000000000000002A
(1619905138.600700) can0 1E0A52D0#000000000000001A
(1619905138.600848) can0 1E0BD2D0#000000000000002A
(1619905138.600996) can0 1E0C12D0#0000000000000000
(1619905138.601142) can0 1E0C52D0#0000000000000030
(1619905138.601288) can0 1E0C92D0#0000000000000030
(1619905138.601429) can0 1E0CD2D0#40AA439100000000
(1619905138.601576) can0 1E0D12D0#0000000000000000
(1619905138.601720) can0 1E0D52D0#418AF55A00000000
(1619905138.601868) can0 1E0DD2D0#4000000000000000
(1619905138.602013) can0 1E0E12D0#400027DE00000000
(1619905138.602160) can0 1E0E52D0#0000000000000000
(1619905138.602309) can0 1E0E92D0#000000000000001F
(1619905138.602455) can0 1E0ED2D0#0000000000000000
(1619905138.602599) can0 1E0D92D0#4163333300000000
(1619905138.602746) can0 1E0F12D0#0000000000000000
(1619905138.602885) can0 1E0052D0#4468AFE600000021
(1619905138.603030) can0 1E0F92D0#4268000000000000
(1619905138.603177) can0 1E0FD2D0#0000000000000000
(1619905138.603323) can0 1E1012D0#0000000000000000
(1619905138.603469) can0 1E1052D0#0000000000000000
(1619905138.603616) can0 1E1092D0#0000000000000000
(1619905138.603762) can0 1E10D2D0#0000000000000000
(1619905138.603903) can0 1E1152D0#400ECA5600000000
(1619905138.604045) can0 1E1192D0#400ECA5600000000
(1619905138.604187) can0 1E11D2D0#400ECA5600000000
(1619905138.604327) can0 1E1212D0#400ECA5600000000
(1619905138.604472) can0 1E1252D0#0000000000000000
(1619905138.604620) can0 1E1112D0#0000000000000000
(1619905138.604764) can0 1E1292D0#0000000000000000
(1619905138.604910) can0 1E12D2D0#0000000000000000
(1619905138.605055) can0 1E1312D0#0000000000000000
(1619905138.605200) can0 1E1352D0#0000000000000000
(1619905138.605347) can0 1E1392D0#0000000000000000
(1619905138.605495) can0 1E13D2D0#0000000000000000
(1619905138.605641) can0 1E1412D0#0000000000000000
(1619905138.605782) can0 1E1452D0#4015AA0C00000000
(1619905138.605923) can0 1E1492D0#401519BE00000000
(1619905138.606065) can0 1E14D2D0#401519BE00000000
(1619905138.606205) can0 1E1512D0#401519BE00000000
(1619905138.606350) can0 1E1552D0#0000000000000000
(1619905138.606496) can0 1E1592D0#0000000000000000
(1619905138.606641) can0 1E15D2D0#0000000000000000
(1619905138.606786) can0 1E1612D0#0000000000000000
(1619905138.606932) can0 1E1652D0#0000000000000000
(1619905138.607077) can0 1E1692D0#0000000000000000
(1619905138.607222) can0 1E16D2D0#0000000000000000
(1619905138.607368) can0 1E1712D0#0000000000000000
(1619905138.607517) can0 1E1752D0#0000000000000000
(1619905138.607663) can0 1E1792D0#0000000000000000
(1619905138.607809) can0 1E17D2D0#0000000000000000
(1619905138.607955) can0 1E1812D0#0000000000000000
(1619905138.608100) can0 1E1852D0#0000000000000000
(1619905138.608245) can0 1E1892D0#0000000000000000
(1619905138.608391) can0 1E18D2D0#0000000000000000
(1619905138.608537) can0 1E1912D0#0000000000000000
(1619905138.608682) can0 1E1952D0#0000000000000000
(1619905138.608829) can0 1E0F52D0#47FFFF8000000000
(1619905138.608974) can0 1E1992D0#0000000000000000
(1619905138.609120) can0 1E19D2D0#0000000000000000
(1619905138.609268) can0 1E1A12D0#0000000000000000
(1619905138.609413) can0 1E1A52D0#0000000000000000
(1619905138.609558) can0 1E1A92D0#0000000000000000
(1619905138.609705) can0 1E1AD2D0#0000000000000000
(1619905138.609851) can0 1E1B92D0#8000000000000000
(1619905138.609996) can0 1E1BD2D0#8000000000000000
(1619905138.610142) can0 1E1C12D0#8000000000000000
(1619905138.610288) can0 1E1C52D0#8000000000000000
(1619905138.610433) can0 1E1C92D0#8000000000000000
(1619905138.610578) can0 1E1B12D0#0000000000000000
(1619905138.610723) can0 1E1B52D0#8000000000000000
(1619905138.610869) can0 1E1D12D0#8000000000000000
(1619905138.611016) can0 1E1D52D0#0000000000000000
(1619905138.611162) can0 1E1D92D0#0000000000000000
(1619905138.611310) can0 1E1DD2D0#0000000000000000
(1619905138.611456) can0 1E1E12D0#0000000000000000
(1619905138.611613) can0 1E1E52D0#0000000000000000
(1619905138.611750) can0 1E1E92D0#0000000000000000
(1619905138.611896) can0 1E1ED2D0#0000000000000000
(1619905138.612042) can0 1E1F12D0#0000000000000000
(1619905138.612188) can0 1E1F52D0#0000000000000000
(1619905138.612329) can0 1E1F92D0#C0E6DC7B00000000
(1619905138.612471) can0 1E3C92D0#4974240000000000
(1619905138.612617) can0 1E3CD2D0#0000000000000000
(1619905138.612759) can0 1E3D12D0#435A000000000000
(1619905138.612898) can0 1E0052D0#4468AFE600000021
(1619905138.613044) can0 1E3D52D0#40A0000000000000
(1619905138.613190) can0 1E3D92D0#0000000000000000
(1619905138.613336) can0 1E3DD2D0#0000000000000000
(1619905138.613483) can0 1E3E12D0#3F80000000000000
(1619905138.613631) can0 1E3E52D0#0000000000000000
(1619905138.613779) can0 1E3E92D0#0000000000000000
(1619905138.613922) can0 1E3F12D0#4974DF8000000000
(1619905138.614062) can0 1E3F52D0#4974628000000000
(1619905138.614209) can0 1E3F92D0#0000000000000000
(1619905138.614357) can0 1E3FD2D0#0000000000000000
(1619905138.614503) can0 1E4012D0#0000000000000000
(1619905138.614647) can0 1E3ED2D0#4110000000000000
(1619905138.614793) can0 1E4052D0#0000000000000000
(1619905138.614939) can0 1E4092D0#0000000000000000
(1619905138.615086) can0 1E40D2D0#0000000000000000
(1619905138.615232) can0 1E4112D0#0000000000000000
(1619905138.615377) can0 1E4152D0#0000000000000000
(1619905138.615524) can0 1E6E12D0#0000000000000000
(1619905138.615670) can0 1E6E52D0#0000000000000000
(1619905138.615816) can0 1E6ED2D0#0000000000000000
(1619905138.615962) can0 1E6F12D0#0000000000000000
(1619905138.616110) can0 1E6F52D0#0000000000000000
(1619905138.616258) can0 1E6F92D0#0000000000000000
(1619905138.616403) can0 1E6FD2D0#0000000000000000
(1619905138.616549) can0 1E6E92D0#0000000000000000
(1619905138.616696) can0 1E7012D0#0000000000000000
(1619905138.616841) can0 1E7052D0#0000000000000000
(1619905138.616986) can0 1E7092D0#0000000000000000
(1619905138.617133) can0 1E70D2D0#0000000000000000
(1619905138.617278) can0 1E7112D0#0000000000000000
(1619905138.617423) can0 1E7152D0#0000000000000000
(1619905138.617568) can0 1E7192D0#0000000000000000
(1619905138.617714) can0 1E71D2D0#0000000000000000
(1619905138.617861) can0 1E7212D0#0000000000000000
(1619905138.618006) can0 1E7252D0#0000000000000000
(1619905138.618151) can0 1E7292D0#0000000000000000
(1619905138.618296) can0 1E72D2D0#0000000000000000
(1619905138.618442) can0 1E7312D0#0000000000000000
(1619905138.618588) can0 1E7352D0#0000000000000000
(1619905138.618734) can0 1E7392D0#0000000000000000
(1619905138.618883) can0 1E73D2D0#0000000000000000
(1619905138.619029) can0 1E7412D0#0000000000000000
(1619905138.619176) can0 1E7452D0#0000000000000000
(1619905138.619322) can0 1E7492D0#0000000000000000
(1619905138.619468) can0 1E74D2D0#0000000000000000
(1619905138.619614) can0 1E7512D0#0000000000000000
(1619905138.619760) can0 1E7552D0#0000000000000000
(1619905138.619905) can0 1E7592D0#0000000000000000
(1619905138.620051) can0 1E75D2D0#0000000000000000
(1619905138.620196) can0 1E7612D0#0000000000000000
(1619905138.620341) can0 1E7652D0#0000000000000000
(1619905138.620486) can0 1E7692D0#0000000000000000
(1619905138.620631) can0 1E76D2D0#0000000000000000
(1619905138.620777) can0 1E7712D0#0000000000000000
(1619905138.620926) can0 1E7752D0#0000000000000000
(1619905138.621070) can0 1E1CD2D0#8000000000000000
(1619905138.621210) can0 1E0252D0#42C83B4D00000000
(1619905138.621354) can0 1E0292D0#42C8000000000000
(1619905138.621501) can0 1E02D2D0#0000000000000000
(1619905138.621646) can0 1E0312D0#42C8000000000000
(1619905138.622803) can0 1E0052D0#44696E6200000021
(1619905138.622944) can0 1E0012D0#00000179285FFE8D
(1619905138.623082) can0 1E0052D0#44696E6200000021
(1619905138.623225) can0 1E0092D0#4014419A00000000
(1619905138.623367) can0 1E00D2D0#40310C4E00000000
(1619905138.623511) can0 1E0112D0#414A017C00000000
(1619905138.623651) can0 1E0152D0#4163333300000000
(1619905138.623793) can0 1E0192D0#4163B93000000004
(1619905138.623932) can0 1E0352D0#4261C44F00000000
(1619905138.624078) can0 1E0392D0#3F80000000000027
(1619905138.624224) can0 1E03D2D0#3F80000000000029
(1619905138.624371) can0 1E0412D0#000000000000000C
(1619905138.624512) can0 1E0452D0#410E2F8A00000000
(1619905138.624653) can0 1E01D2D0#4163B93000000000
(1619905138.624795) can0 1E0212D0#4163B93000000000
(1619905138.624942) can0 1E0492D0#0000000000000000
(1619905138.625089) can0 1E04D2D0#0000000000000000
(1619905138.625236) can0 1E0512D0#0000000000000000
(1619905138.625377) can0 1E0552D0#4283F96B00000000
(1619905138.625519) can0 1E0592D0#41726B5800000000
(1619905138.625665) can0 1E05D2D0#0000000000000000
(1619905138.625806) can0 1E06D2D0#445A6CFF00000000
(1619905138.625947) can0 1E0712D0#42129B0F00000000
(1619905138.626094) can0 1E0752D0#0000000000000000
(1619905138.626237) can0 1E0792D0#42FB0F2700000000
(1619905138.626379) can0 1E07D2D0#432061E800000000
(1619905138.626527) can0 1E0612D0#0000000000000000
(1619905138.626667) can0 1E0692D0#41A593B100000000
(1619905138.626808) can0 1E0812D0#42ACBCF100000000
(1619905138.626947) can0 1E0852D0#415CD25500000017
(1619905138.627088) can0 1E0892D0#C145405300000013
(1619905138.627229) can0 1E08D2D0#422DC0C100000017
(1619905138.627376) can0 1E0912D0#0000000000000000
(1619905138.627521) can0 1E0952D0#000000000000002C
(1619905138.627666) can0 1E0992D0#000000000000002C
(1619905138.627811) can0 1E0A52D0#000000000000001A
(1619905138.627956) can0 1E0A92D0#000000000000001A
(1619905138.628102) can0 1E0AD2D0#000000000000001A
(1619905138.628247) can0 1E0B12D0#000000000000002A
(1619905138.628392) can0 1E0B52D0#000000000000002A
(1619905138.628537) can0 1E09D2D0#000000000000002C
(1619905138.628683) can0 1E0A12D0#000000000000002A
(1619905138.628830) can0 1E0B92D0#000000000000002A
(1619905138.628976) can0 1E0BD2D0#000000000000002A
(1619905138.629125) can0 1E0C12D0#0000000000000000
(1619905138.629271) can0 1E0C52D0#0000000000000030
(1619905138.629417) can0 1E0C92D0#0000000000000030
(1619905138.629559) can0 1E0CD2D0#40A8D88900000000
(1619905138.629706) can0 1E0D12D0#0000000000000000
(1619905138.629849) can0 1E0D92D0#4163333300000000
(1619905138.629998) can0 1E0DD2D0#4000000000000000
(1619905138.630144) can0 1E0E12D0#3FFFF99600000000
(1619905138.630291) can0 1E0E52D0#0000000000000000
(1619905138.630439) can0 1E0E92D0#000000000000001F
(1619905138.630581) can0 1E0D52D0#418A8C7F00000000
(1619905138.630728) can0 1E0ED2D0#0000000000000000
(1619905138.630876) can0 1E0F52D0#47FFFF8000000000
(1619905138.631021) can0 1E0F92D0#4268000000000000
(1619905138.631169) can0 1E0FD2D0#0000000000000000
(1619905138.631314) can0 1E1012D0#0000000000000000
(1619905138.631460) can0 1E1052D0#0000000000000000
(1619905138.631615) can0 1E1092D0#0000000000000000
(1619905138.631753) can0 1E10D2D0#0000000000000000
(1619905138.631899) can0 1E1112D0#0000000000000000
(1619905138.632039) can0 1E1152D0#400E54AA00000000
(1619905138.632179) can0 1E1192D0#400E54AA00000000
(1619905138.632319) can0 1E11D2D0#400E54AA00000000
(1619905138.632460) can0 1E1212D0#400E54AA00000000
(1619905138.632605) can0 1E1252D0#0000000000000000
(1619905138.632750) can0 1E1292D0#0000000000000000
(1619905138.632889) can0 1E0052D0#44690F3C00000021
(1619905138.633035) can0 1E12D2D0#0000000000000000
(1619905138.633180) can0 1E1312D0#0000000000000000
(1619905138.633325) can0 1E1352D0#0000000000000000
(1619905138.633473) can0 1E1392D0#0000000000000000
(1619905138.633619) can0 1E13D2D0#0000000000000000
(1619905138.633766) can0 1E1412D0#0000000000000000
(1619905138.633906) can0 1E1492D0#4014975400000000
(1619905138.634046) can0 1E14D2D0#4014975400000000
(1619905138.634185) can0 1E1512D0#4014975400000000
(1619905138.634330) can0 1E1552D0#0000000000000000
(1619905138.634475) can0 1E1592D0#0000000000000000
(1619905138.634617) can0 1E1452D0#4014FEA000000000
(1619905138.634762) can0 1E15D2D0#0000000000000000
(1619905138.634907) can0 1E1612D0#0000000000000000
(1619905138.635052) can0 1E1652D0#0000000000000000
(1619905138.635198) can0 1E1692D0#0000000000000000
(1619905138.635343) can0 1E16D2D0#0000000000000000
(1619905138.635490) can0 1E1712D0#0000000000000000
(1619905138.635638) can0 1E1752D0#0000000000000000
(1619905138.635785) can0 1E1792D0#0000000000000000
(1619905138.635930) can0 1E17D2D0#0000000000000000
(1619905138.636076) can0 1E1812D0#0000000000000000
(1619905138.636221) can0 1E1852D0#0000000000000000
(1619905138.636366) can0 1E1892D0#0000000000000000
(1619905138.636511) can0 1E18D2D0#0000000000000000
(1619905138.636658) can0 1E1912D0#0000000000000000
(1619905138.636805) can0 1E0F12D0#0000000000000000
(1619905138.636950) can0 1E1952D0#0000000000000000
(1619905138.637095) can0 1E1992D0#0000000000000000
(1619905138.637241) can0 1E19D2D0#0000000000000000
(1619905138.637388) can0 1E1A12D0#0000000000000000
(1619905138.637533) can0 1E1A52D0#0000000000000000
(1619905138.637678) can0 1E1A92D0#0000000000000000
(1619905138.637824) can0 1E1B52D0#8000000000000000
(1619905138.637970) can0 1E1B92D0#8000000000000000
(1619905138.638116) can0 1E1BD2D0#8000000000000000
(1619905138.638261) can0 1E1C12D0#8000000000000000
(1619905138.638406) can0 1E1C52D0#8000000000000000
(1619905138.638553) can0 1E1AD2D0#0000000000000000
(1619905138.638699) can0 1E1B12D0#0000000000000000
(1619905138.638844) can0 1E1CD2D0#8000000000000000
(1619905138.638990) can0 1E1D12D0#8000000000000000
(1619905138.639137) can0 1E1D52D0#0000000000000000
(1619905138.639283) can0 1E1D92D0#0000000000000000
(1619905138.639430) can0 1E1DD2D0#0000000000000000
(1619905138.639577) can0 1E1E12D0#0000000000000000
(1619905138.639725) can0 1E1E52D0#0000000000000000
(1619905138.639871) can0 1E1E92D0#0000000000000000
(1619905138.640017) can0 1E1ED2D0#0000000000000000
(1619905138.640163) can0 1E1F12D0#0000000000000000
(1619905138.640309) can0 1E1F52D0#0000000000000000
(1619905138.640450) can0 1E1F92D0#C0E8424F00000000
(1619905138.640592) can0 1E3C92D0#4974240000000000
(1619905138.640738) can0 1E3CD2D0#0000000000000000
(1619905138.640880) can0 1E3D12D0#435A000000000000
(1619905138.641025) can0 1E3D52D0#40A0000000000000
(1619905138.641171) can0 1E3D92D0#0000000000000000
(1619905138.641317) can0 1E3DD2D0#0000000000000000
(1619905138.641465) can0 1E3E12D0#3F80000000000000
(1619905138.641622) can0 1E3E52D0#0000000000000000
(1619905138.641761) can0 1E3E92D0#0000000000000000
(1619905138.641905) can0 1E3ED2D0#4110000000000000
(1619905138.642047) can0 1E3F12D0#4974DF8000000000
(1619905138.642188) can0 1E3F52D0#4974628000000000
(1619905138.642334) can0 1E3F92D0#0000000000000000
(1619905138.642483) can0 1E3FD2D0#0000000000000000
(1619905138.642629) can0 1E4012D0#0000000000000000
(1619905138.642776) can0 1E4052D0#0000000000000000
(1619905138.642913) can0 1E0052D0#44690F3C00000021
(1619905138.643059) can0 1E4092D0#0000000000000000
(1619905138.643205) can0 1E40D2D0#0000000000000000
(1619905138.643351) can0 1E4112D0#0000000000000000
(1619905138.643497) can0 1E4152D0#0000000000000000
(1619905138.643644) can0 1E6E12D0#0000000000000000
(1619905138.643790) can0 1E6E52D0#0000000000000000
(1619905138.643936) can0 1E6ED2D0#0000000000000000
(1619905138.644082) can0 1E6F12D0#0000000000000000
(1619905138.644229) can0 1E6F52D0#0000000000000000
(1619905138.644377) can0 1E6F92D0#0000000000000000
(1619905138.644523) can0 1E6E92D0#0000000000000000
(1619905138.644669) can0 1E6FD2D0#0000000000000000
(1619905138.644814) can0 1E1C92D0#8000000000000000
(1619905138.644961) can0 1E7012D0#0000000000000000
(1619905138.645107) can0 1E7052D0#0000000000000000
(1619905138.645252) can0 1E7092D0#0000000000000000
(1619905138.645398) can0 1E70D2D0#0000000000000000
(1619905138.645543) can0 1E7112D0#0000000000000000
(1619905138.645688) can0 1E7152D0#0000000000000000
(1619905138.645834) can0 1E71D2D0#0000000000000000
(1619905138.645980) can0 1E7212D0#0000000000000000
(1619905138.646125) can0 1E7252D0#0000000000000000
(1619905138.646271) can0 1E7292D0#0000000000000000
(1619905138.646416) can0 1E72D2D0#0000000000000000
(1619905138.646561) can0 1E7192D0#0000000000000000
(1619905138.646707) can0 1E7312D0#0000000000000000
(1619905138.646854) can0 1E7392D0#0000000000000000
(1619905138.647002) can0 1E73D2D0#0000000000000000
(1619905138.647148) can0 1E7412D0#0000000000000000
(1619905138.647296) can0 1E7452D0#0000000000000000
(1619905138.647443) can0 1E7492D0#0000000000000000
(1619905138.647588) can0 1E74D2D0#0000000000000000
(1619905138.647734) can0 1E7512D0#0000000000000000
(1619905138.647879) can0 1E7552D0#0000000000000000
(1619905138.648024) can0 1E7592D0#0000000000000000
(1619905138.648171) can0 1E75D2D0#0000000000000000
(1619905138.648316) can0 1E7612D0#0000000000000000
(1619905138.648461) can0 1E7652D0#0000000000000000
(1619905138.648606) can0 1E7692D0#0000000000000000
(1619905138.648751) can0 1E76D2D0#0000000000000000
(1619905138.648897) can0 1E7712D0#0000000000000000
(1619905138.649044) can0 1E7752D0#0000000000000000
(1619905138.649190) can0 1E7352D0#0000000000000000
(1619905138.649330) can0 1E0252D0#42C83B8F00000000
(1619905138.649474) can0 1E0292D0#42C8000000000000
(1619905138.649621) can0 1E02D2D0#0000000000000000
(1619905138.649765) can0 1E0312D0#42C8000000000000
(1619905138.650794) can0 1E0012D0#00000179285FFEA9
(1619905138.650933) can0 1E0052D0#44687A0100000021
(1619905138.651074) can0 1E0092D0#4012E35400000000
(1619905138.651214) can0 1E00D2D0#402E3BDB00000000
(1619905138.651357) can0 1E0112D0#4149410300000000
(1619905138.651498) can0 1E0152D0#4163333300000000
(1619905138.651639) can0 1E0192D0#4162F7CD00000004
(1619905138.651779) can0 1E01D2D0#4163125800000000
(1619905138.651918) can0 1E0352D0#4261CD9100000000
(1619905138.652064) can0 1E0392D0#3F80000000000027
(1619905138.652209) can0 1E03D2D0#3F80000000000029
(1619905138.652357) can0 1E0412D0#000000000000000C
(1619905138.652498) can0 1E0452D0#410B0FF500000000
(1619905138.652645) can0 1E0492D0#0000000000000000
(1619905138.652786) can0 1E0212D0#4163125800000000
(1619905138.652926) can0 1E0052D0#44687A0100000021
(1619905138.653072) can0 1E04D2D0#0000000000000000
(1619905138.653218) can0 1E0512D0#0000000000000000
(1619905138.653360) can0 1E0552D0#428251A000000000
(1619905138.653502) can0 1E0592D0#4174E4E700000000
(1619905138.653648) can0 1E05D2D0#0000000000000000
(1619905138.653789) can0 1E0712D0#4210F60E00000000
(1619905138.653936) can0 1E0752D0#0000000000000000
(1619905138.654079) can0 1E0792D0#42FB071A00000000
(1619905138.654220) can0 1E07D2D0#4320624B00000000
(1619905138.654367) can0 1E0612D0#0000000000000000
(1619905138.654510) can0 1E0692D0#41A783A400000000
(1619905138.654650) can0 1E06D2D0#445A6CBF00000000
(1619905138.654790) can0 1E0812D0#42ACBDBB00000000
(1619905138.654930) can0 1E0852D0#415CA34900000000
(1619905138.655070) can0 1E0892D0#C1458DC000000013
(1619905138.655210) can0 1E08D2D0#422DC07A00000017
(1619905138.655357) can0 1E0912D0#0000000000000000
(1619905138.655502) can0 1E0952D0#000000000000002C
(1619905138.655647) can0 1E0992D0#000000000000002C
(1619905138.655792) can0 1E0A52D0#000000000000001A
(1619905138.655937) can0 1E0A92D0#000000000000001A
(1619905138.656083) can0 1E0AD2D0#000000000000001A
(1619905138.656227) can0 1E0B12D0#000000000000002A
(1619905138.656373) can0 1E0B52D0#000000000000002A
(1619905138.656518) can0 1E09D2D0#000000000000002C
(1619905138.656664) can0 1E0A12D0#000000000000002A
(1619905138.656810) can0 1E0B92D0#000000000000002A
(1619905138.656957) can0 1E0BD2D0#000000000000002A
(1619905138.657105) can0 1E0C12D0#0000000000000000
(1619905138.657252) can0 1E0C52D0#0000000000000030
(1619905138.657398) can0 1E0C92D0#0000000000000030
(1619905138.657541) can0 1E0CD2D0#40A4F2FD00000000
(1619905138.657687) can0 1E0D12D0#0000000000000000
(1619905138.657830) can0 1E0D92D0#4163333300000000
(1619905138.657978) can0 1E0DD2D0#4000000000000000
(1619905138.658122) can0 1E0E12D0#4000181600000000
(1619905138.658270) can0 1E0E52D0#0000000000000000
(1619905138.658418) can0 1E0E92D0#000000000000001F
(1619905138.658559) can0 1E0D52D0#4189EDD200000000
(1619905138.658706) can0 1E0ED2D0#0000000000000000
(1619905138.658853) can0 1E0F52D0#47FFFF8000000000
(1619905138.658998) can0 1E0F92D0#4268000000000000
(1619905138.659145) can0 1E0FD2D0#0000000000000000
(1619905138.659292) can0 1E1012D0#0000000000000000
(1619905138.659438) can0 1E1052D0#0000000000000000
(1619905138.659584) can0 1E1092D0#0000000000000000
(1619905138.659730) can0 1E10D2D0#0000000000000000
(1619905138.659877) can0 1E1112D0#0000000000000000
(1619905138.660020) can0 1E1152D0#400CA7F400000000
(1619905138.660163) can0 1E1192D0#400CA7F400000000
(1619905138.660305) can0 1E11D2D0#400CA7F400000000
(1619905138.660447) can0 1E1212D0#400CA7F400000000
(1619905138.660592) can0 1E1252D0#0000000000000000
(1619905138.660737) can0 1E1292D0#0000000000000000
(1619905138.660883) can0 1E12D2D0#0000000000000000
(1619905138.661028) can0 1E1312D0#0000000000000000
(1619905138.661174) can0 1E1352D0#0000000000000000
(1619905138.661321) can0 1E1392D0#0000000000000000
(1619905138.661468) can0 1E13D2D0#0000000000000000
(1619905138.661622) can0 1E1412D0#0000000000000000
(1619905138.661755) can0 1E1452D0#4014012E00000000
(1619905138.661893) can0 1E1492D0#40144CBC00000000
(1619905138.662035) can0 1E14D2D0#40144CBC00000000
(1619905138.662177) can0 1E1512D0#40144CBC00000000
(1619905138.662321) can0 1E1552D0#0000000000000000
(1619905138.662466) can0 1E1592D0#0000000000000000
(1619905138.662611) can0 1E15D2D0#0000000000000000
(1619905138.662756) can0 1E1612D0#0000000000000000
(1619905138.662896) can0 1E0052D0#44687EB600000021
(1619905138.663042) can0 1E1652D0#0000000000000000
(1619905138.663188) can0 1E1692D0#0000000000000000
(1619905138.663333) can0 1E16D2D0#0000000000000000
(1619905138.663479) can0 1E1712D0#0000000000000000
(1619905138.663627) can0 1E1752D0#0000000000000000
(1619905138.663773) can0 1E1792D0#0000000000000000
(1619905138.663919) can0 1E1812D0#0000000000000000
(1619905138.664065) can0 1E1852D0#0000000000000000
(1619905138.664210) can0 1E1892D0#0000000000000000
(1619905138.664355) can0 1E18D2D0#0000000000000000
(1619905138.664502) can0 1E17D2D0#0000000000000000
(1619905138.664647) can0 1E1912D0#0000000000000000
(1619905138.664794) can0 1E0F12D0#0000000000000000
(1619905138.664940) can0 1E1952D0#0000000000000000
(1619905138.665085) can0 1E1992D0#0000000000000000
(1619905138.665231) can0 1E19D2D0#0000000000000000
(1619905138.665378) can0 1E1A12D0#0000000000000000
(1619905138.665523) can0 1E1A52D0#0000000000000000
(1619905138.665668) can0 1E1A92D0#0000000000000000
(1619905138.665813) can0 1E1B12D0#0000000000000000
(1619905138.665959) can0 1E1B52D0#8000000000000000
(1619905138.666105) can0 1E1B92D0#8000000000000000
(1619905138.666254) can0 1E1BD2D0#8000000000000000
(1619905138.666397) can0 1E1C12D0#8000000000000000
(1619905138.666543) can0 1E1AD2D0#0000000000000000
(1619905138.666688) can0 1E1C52D0#8000000000000000
(1619905138.666835) can0 1E1CD2D0#8000000000000000
(1619905138.666980) can0 1E1D12D0#8000000000000000
(1619905138.667127) can0 1E1D52D0#0000000000000000
(1619905138.667273) can0 1E1D92D0#0000000000000000
(1619905138.667420) can0 1E1DD2D0#0000000000000000
(1619905138.667566) can0 1E1E12D0#0000000000000000
(1619905138.667714) can0 1E1E52D0#0000000000000000
(1619905138.667861) can0 1E1E92D0#0000000000000000
(1619905138.668007) can0 1E1ED2D0#0000000000000000
(1619905138.668153) can0 1E1F12D0#0000000000000000
(1619905138.668299) can0 1E1F52D0#0000000000000000
(1619905138.668439) can0 1E1F92D0#C0E7B89B00000000
(1619905138.668581) can0 1E3C92D0#4974240000000000
(1619905138.668727) can0 1E3CD2D0#0000000000000000
(1619905138.668871) can0 1E3D12D0#435B000000000000
(1619905138.669016) can0 1E3D52D0#40A0000000000000
(1619905138.669163) can0 1E3D92D0#0000000000000000
(1619905138.669308) can0 1E3DD2D0#0000000000000000
(1619905138.669455) can0 1E3E12D0#3F80000000000000
(1619905138.669603) can0 1E3E52D0#0000000000000000
(1619905138.669752) can0 1E3E92D0#0000000000000000
(1619905138.669896) can0 1E3ED2D0#4110000000000000
(1619905138.670038) can0 1E3F12D0#4974DF8000000000
(1619905138.670179) can0 1E3F52D0#4974628000000000
(1619905138.670325) can0 1E3F92D0#0000000000000000
(1619905138.670473) can0 1E3FD2D0#0000000000000000
(1619905138.670619) can0 1E4012D0#0000000000000000
(1619905138.670766) can0 1E4052D0#0000000000000000
(1619905138.670912) can0 1E4092D0#0000000000000000
(1619905138.671058) can0 1E40D2D0#0000000000000000
(1619905138.671204) can0 1E4112D0#0000000000000000
(1619905138.671349) can0 1E4152D0#0000000000000000
(1619905138.671497) can0 1E6E12D0#0000000000000000
(1619905138.671643) can0 1E6E52D0#0000000000000000
(1619905138.671789) can0 1E6ED2D0#0000000000000000
(1619905138.671935) can0 1E6F12D0#0000000000000000
(1619905138.672082) can0 1E6F52D0#0000000000000000
(1619905138.672229) can0 1E6F92D0#0000000000000000
(1619905138.672375) can0 1E6FD2D0#0000000000000000
(1619905138.672521) can0 1E6E92D0#0000000000000000
(1619905138.672669) can0 1E7012D0#0000000000000000
(1619905138.672809) can0 1E0052D0#44687EB600000021
(1619905138.672954) can0 1E7052D0#0000000000000000
(1619905138.673099) can0 1E7092D0#0000000000000000
(1619905138.673245) can0 1E70D2D0#0000000000000000
(1619905138.673390) can0 1E7112D0#0000000000000000
(1619905138.673535) can0 1E7152D0#0000000000000000
(1619905138.673681) can0 1E7192D0#0000000000000000
(1619905138.673828) can0 1E7212D0#0000000000000000
(1619905138.673972) can0 1E7252D0#0000000000000000
(1619905138.674117) can0 1E7292D0#0000000000000000
(1619905138.674262) can0 1E72D2D0#0000000000000000
(1619905138.674408) can0 1E7312D0#0000000000000000
(1619905138.674554) can0 1E71D2D0#0000000000000000
(1619905138.674700) can0 1E7352D0#0000000000000000
(1619905138.674847) can0 1E7392D0#0000000000000000
(1619905138.674995) can0 1E73D2D0#0000000000000000
(1619905138.675141) can0 1E7412D0#0000000000000000
(1619905138.675288) can0 1E7452D0#0000000000000000
(1619905138.675435) can0 1E7492D0#0000000000000000
(1619905138.675581) can0 1E74D2D0#0000000000000000
(1619905138.675727) can0 1E7512D0#0000000000000000
(1619905138.675872) can0 1E7552D0#0000000000000000
(1619905138.676017) can0 1E7592D0#0000000000000000
(1619905138.676164) can0 1E75D2D0#0000000000000000
(1619905138.676309) can0 1E7612D0#0000000000000000
(1619905138.676453) can0 1E7652D0#0000000000000000
(1619905138.676599) can0 1E7692D0#0000000000000000
(1619905138.676744) can0 1E76D2D0#0000000000000000
(1619905138.676890) can0 1E7712D0#0000000000000000
(1619905138.677037) can0 1E7752D0#0000000000000000
(1619905138.677182) can0 1E1C92D0#8000000000000000
(1619905138.677324) can0 1E0252D0#42C83D7E00000000
(1619905138.677469) can0 1E0292D0#42C8000000000000
(1619905138.677616) can0 1E02D2D0#0000000000000000
(1619905138.677759) can0 1E0312D0#42C8000000000000
(1619905138.678770) can0 1E0012D0#00000179285FFEC5
(1619905138.678909) can0 1E0052D0#4468C88100000021
(1619905138.679052) can0 1E0092D0#4014273E00000000
(1619905138.679193) can0 1E00D2D0#403043C600000000
(1619905138.679334) can0 1E0112D0#41491A3400000000
(1619905138.679473) can0 1E0152D0#4163333300000000
(1619905138.679615) can0 1E0192D0#4162F7F100000004
(1619905138.679758) can0 1E01D2D0#4162F7F100000000
(1619905138.679898) can0 1E0352D0#4261E17B00000000
(1619905138.680044) can0 1E0392D0#3F80000000000027
(1619905138.680189) can0 1E03D2D0#3F80000000000029
(1619905138.680336) can0 1E0412D0#000000000000000C
(1619905138.680476) can0 1E0452D0#410D243B00000000
(1619905138.680624) can0 1E0492D0#0000000000000000
(1619905138.680766) can0 1E0212D0#4162F7F100000000
(1619905138.680913) can0 1E04D2D0#0000000000000000
(1619905138.681059) can0 1E0512D0#0000000000000000
(1619905138.681200) can0 1E0552D0#428317AA00000000
(1619905138.681340) can0 1E0592D0#4174750E00000000
(1619905138.681486) can0 1E05D2D0#0000000000000000
(1619905138.681644) can0 1E0612D0#0000000000000000
(1619905138.681775) can0 1E0712D0#4212130C00000000
(1619905138.681922) can0 1E0752D0#0000000000000000
(1619905138.682064) can0 1E0792D0#42FB190600000000
(1619905138.682206) can0 1E07D2D0#4320641200000000
(1619905138.682348) can0 1E0812D0#42ACBEB500000000
(1619905138.682489) can0 1E0692D0#41A59C6600000000
(1619905138.682630) can0 1E06D2D0#445A6B6800000000
(1619905138.682772) can0 1E0852D0#415C9BDF00000000
(1619905138.682911) can0 1E0052D0#4468C88100000021
(1619905138.683051) can0 1E0892D0#C145B24800000013
(1619905138.683190) can0 1E08D2D0#422DAE7B00000017
(1619905138.683338) can0 1E0912D0#0000000000000000
(1619905138.683482) can0 1E0952D0#000000000000002C
(1619905138.683628) can0 1E0992D0#000000000000002C
(1619905138.683773) can0 1E0A92D0#000000000000001A
(1619905138.683919) can0 1E0AD2D0#000000000000001A
(1619905138.684063) can0 1E0B12D0#000000000000002A
(1619905138.684208) can0 1E0B52D0#000000000000002A
(1619905138.684353) can0 1E09D2D0#000000000000002C
(1619905138.684500) can0 1E0A12D0#000000000000002A
(1619905138.684645) can0 1E0A52D0#000000000000001A
(1619905138.684791) can0 1E0B92D0#000000000000002A
(1619905138.684938) can0 1E0BD2D0#000000000000002A
(1619905138.685086) can0 1E0C12D0#0000000000000000
(1619905138.685232) can0 1E0C52D0#0000000000000030
(1619905138.685379) can0 1E0C92D0#0000000000000030
(1619905138.685522) can0 1E0CD2D0#40A68F4C00000000
(1619905138.685669) can0 1E0D12D0#0000000000000000
(1619905138.685812) can0 1E0D92D0#4163333300000000
(1619905138.685960) can0 1E0DD2D0#4000000000000000
(1619905138.686103) can0 1E0E12D0#40001C6400000000
(1619905138.686252) can0 1E0E52D0#0000000000000000
(1619905138.686399) can0 1E0E92D0#000000000000001F
(1619905138.686541) can0 1E0D52D0#418A324D00000000
(1619905138.686688) can0 1E0ED2D0#0000000000000000
(1619905138.686835) can0 1E0F52D0#47FFFF8000000000
(1619905138.686980) can0 1E0F92D0#4268000000000000
(1619905138.687127) can0 1E0FD2D0#0000000000000000
(1619905138.687274) can0 1E1012D0#0000000000000000
(1619905138.687420) can0 1E1052D0#0000000000000000
(1619905138.687566) can0 1E1092D0#0000000000000000
(1619905138.687712) can0 1E10D2D0#0000000000000000
(1619905138.687858) can0 1E1112D0#0000000000000000
(1619905138.687998) can0 1E1152D0#400D429500000000
(1619905138.688139) can0 1E1192D0#400D429500000000
(1619905138.688279) can0 1E11D2D0#400D429500000000
(1619905138.688419) can0 1E1212D0#400D429500000000
(1619905138.688565) can0 1E1252D0#0000000000000000
(1619905138.688709) can0 1E1292D0#0000000000000000
(1619905138.688855) can0 1E12D2D0#0000000000000000
(1619905138.689000) can0 1E1312D0#0000000000000000
(1619905138.689145) can0 1E1352D0#0000000000000000
(1619905138.689293) can0 1E1392D0#0000000000000000
(1619905138.689440) can0 1E13D2D0#0000000000000000
(1619905138.689586) can0 1E1412D0#0000000000000000
(1619905138.689727) can0 1E1452D0#40145A7000000000
(1619905138.689868) can0 1E1492D0#4014FAA300000000
(1619905138.690009) can0 1E14D2D0#4014FAA300000000
(1619905138.690150) can0 1E1512D0#4014FAA300000000
(1619905138.690295) can0 1E1552D0#0000000000000000
(1619905138.690440) can0 1E1592D0#0000000000000000
(1619905138.690585) can0 1E15D2D0#0000000000000000
(1619905138.690730) can0 1E1612D0#0000000000000000
(1619905138.690876) can0 1E1652D0#0000000000000000
(1619905138.691021) can0 1E1692D0#0000000000000000
(1619905138.691167) can0 1E16D2D0#0000000000000000
(1619905138.691313) can0 1E1712D0#0000000000000000
(1619905138.691461) can0 1E1752D0#0000000000000000
(1619905138.691616) can0 1E1792D0#0000000000000000
(1619905138.691753) can0 1E17D2D0#0000000000000000
(1619905138.691899) can0 1E1812D0#0000000000000000
(1619905138.692045) can0 1E1852D0#0000000000000000
(1619905138.692190) can0 1E1892D0#0000000000000000
(1619905138.692335) can0 1E18D2D0#0000000000000000
(1619905138.692481) can0 1E1912D0#0000000000000000
(1619905138.692626) can0 1E1952D0#0000000000000000
(1619905138.692773) can0 1E0F12D0#0000000000000000
(1619905138.692912) can0 1E0052D0#4468C88100000021
(1619905138.693058) can0 1E1992D0#0000000000000000
(1619905138.693205) can0 1E19D2D0#0000000000000000
(1619905138.693351) can0 1E1A12D0#0000000000000000
(1619905138.693496) can0 1E1A52D0#0000000000000000
(1619905138.693641) can0 1E1A92D0#0000000000000000
(1619905138.693787) can0 1E1B92D0#8000000000000000
(1619905138.693933) can0 1E1BD2D0#8000000000000000
(1619905138.694079) can0 1E1C12D0#8000000000000000
(1619905138.694224) can0 1E1C52D0#8000000000000000
(1619905138.694371) can0 1E1AD2D0#0000000000000000
(1619905138.694516) can0 1E1B12D0#0000000000000000
(1619905138.694661) can0 1E1B52D0#8000000000000000
(1619905138.694806) can0 1E1CD2D0#8000000000000000
(1619905138.694953) can0 1E1D12D0#8000000000000000
(1619905138.695100) can0 1E1D52D0#0000000000000000
(1619905138.695246) can0 1E1D92D0#0000000000000000
(1619905138.695393) can0 1E1DD2D0#0000000000000000
(1619905138.695540) can0 1E1E12D0#0000000000000000
(1619905138.695687) can0 1E1E52D0#0000000000000000
(1619905138.695833) can0 1E1E92D0#0000000000000000
(1619905138.695980) can0 1E1ED2D0#0000000000000000
(1619905138.696126) can0 1E1F12D0#0000000000000000
(1619905138.696272) can0 1E1F52D0#0000000000000000
(1619905138.696414) can0 1E1F92D0#C0E5F96E00000000
(1619905138.696556) can0 1E3C92D0#4974240000000000
(1619905138.696702) can0 1E3CD2D0#0000000000000000
(1619905138.696846) can0 1E3D12D0#435B000000000000
(1619905138.696991) can0 1E3D52D0#40A0000000000000
(1619905138.697137) can0 1E3D92D0#0000000000000000
(1619905138.697283) can0 1E3DD2D0#0000000000000000
(1619905138.697430) can0 1E3E12D0#3F80000000000000
(1619905138.697578) can0 1E3E52D0#0000000000000000
(1619905138.697726) can0 1E3E92D0#0000000000000000
(1619905138.697872) can0 1E3ED2D0#4110000000000000
(1619905138.698013) can0 1E3F12D0#4974DF8000000000
(1619905138.698154) can0 1E3F52D0#4974628000000000
(1619905138.698300) can0 1E3F92D0#0000000000000000
(1619905138.698448) can0 1E3FD2D0#0000000000000000
(1619905138.698594) can0 1E4012D0#0000000000000000
(1619905138.698741) can0 1E4052D0#0000000000000000
(1619905138.698887) can0 1E4092D0#0000000000000000
(1619905138.699033) can0 1E40D2D0#0000000000000000
(1619905138.699179) can0 1E4112D0#0000000000000000
(1619905138.699324) can0 1E4152D0#0000000000000000
(1619905138.699471) can0 1E6E12D0#0000000000000000
(1619905138.699617) can0 1E6E52D0#0000000000000000
(1619905138.699764) can0 1E6ED2D0#0000000000000000
(1619905138.699910) can0 1E6F12D0#0000000000000000
(1619905138.700057) can0 1E6F52D0#0000000000000000
(1619905138.700205) can0 1E6F92D0#0000000000000000
(1619905138.700350) can0 1E6FD2D0#0000000000000000
(1619905138.700496) can0 1E6E92D0#0000000000000000
(1619905138.700644) can0 1E7012D0#0000000000000000
(1619905138.700789) can0 1E7052D0#0000000000000000
(1619905138.700934) can0 1E7092D0#0000000000000000
(1619905138.701080) can0 1E70D2D0#0000000000000000
(1619905138.701225) can0 1E7112D0#0000000000000000
(1619905138.701370) can0 1E7152D0#0000000000000000
(1619905138.701515) can0 1E7192D0#0000000000000000
(1619905138.701663) can0 1E71D2D0#0000000000000000
(1619905138.701808) can0 1E7212D0#0000000000000000
(1619905138.701953) can0 1E7252D0#0000000000000000
(1619905138.702098) can0 1E7292D0#0000000000000000
(1619905138.702243) can0 1E72D2D0#0000000000000000
(1619905138.702389) can0 1E7312D0#0000000000000000
(1619905138.702535) can0 1E7352D0#0000000000000000
(1619905138.702681) can0 1E7392D0#0000000000000000
(1619905138.702821) can0 1E0052D0#44690C6100000021
(1619905138.702969) can0 1E73D2D0#0000000000000000
(1619905138.703115) can0 1E7412D0#0000000000000000
(1619905138.703262) can0 1E7452D0#0000000000000000
(1619905138.703408) can0 1E7492D0#0000000000000000
(1619905138.703554) can0 1E74D2D0#0000000000000000
(1619905138.703701) can0 1E7512D0#0000000000000000
(1619905138.703846) can0 1E7592D0#0000000000000000
(1619905138.703992) can0 1E75D2D0#0000000000000000
(1619905138.704137) can0 1E7612D0#0000000000000000
(1619905138.704282) can0 1E7652D0#0000000000000000
(1619905138.704427) can0 1E7692D0#0000000000000000
(1619905138.704573) can0 1E7552D0#0000000000000000
(1619905138.704718) can0 1E76D2D0#0000000000000000
(1619905138.704865) can0 1E7712D0#0000000000000000
(1619905138.705011) can0 1E7752D0#0000000000000000
(1619905138.705156) can0 1E1C92D0#8000000000000000
(1619905138.705299) can0 1E0252D0#42C83B5F00000000
(1619905138.705444) can0 1E0292D0#42C8000000000000
(1619905138.705591) can0 1E02D2D0#0000000000000000
(1619905138.705734) can0 1E0312D0#42C8000000000000
(1619905138.706752) can0 1E0012D0#00000179285FFEE1
(1619905138.706891) can0 1E0052D0#44690C6100000021
(1619905138.707032) can0 1E0092D0#40149C4400000000
(1619905138.707175) can0 1E00D2D0#40313EFE00000000
(1619905138.707316) can0 1E0112D0#4149951800000000
(1619905138.707456) can0 1E0152D0#4163333300000000
(1619905138.707596) can0 1E0192D0#4163638700000004
(1619905138.707736) can0 1E01D2D0#4163638700000000
(1619905138.707876) can0 1E0352D0#4261EB3F00000000
(1619905138.708023) can0 1E0392D0#3F80000000000027
(1619905138.708168) can0 1E03D2D0#3F80000000000029
(1619905138.708315) can0 1E0412D0#000000000000000C
(1619905138.708458) can0 1E0452D0#410DF97000000000
(1619905138.708605) can0 1E0492D0#0000000000000000
(1619905138.708746) can0 1E0212D0#4163638700000000
(1619905138.708893) can0 1E04D2D0#0000000000000000
(1619905138.709039) can0 1E0512D0#0000000000000000
(1619905138.709180) can0 1E0552D0#4283AC3800000000
(1619905138.709323) can0 1E0592D0#4173E79400000000
(1619905138.709469) can0 1E05D2D0#0000000000000000
(1619905138.709616) can0 1E0612D0#0000000000000000
(1619905138.709757) can0 1E0712D0#42128E9D00000000
(1619905138.709904) can0 1E0752D0#0000000000000000
(1619905138.710047) can0 1E0792D0#42FB0EDD00000000
(1619905138.710189) can0 1E07D2D0#4320646100000000
(1619905138.710331) can0 1E0812D0#42ACBEAA00000000
(1619905138.710470) can0 1E0692D0#41A58D2E00000000
(1619905138.710612) can0 1E06D2D0#445A6B4100000000
(1619905138.710753) can0 1E0852D0#415CB8D800000000
(1619905138.710893) can0 1E0892D0#C14575BA00000013
(1619905138.711035) can0 1E08D2D0#422DB48000000017
(1619905138.711182) can0 1E0912D0#0000000000000000
(1619905138.711327) can0 1E0952D0#000000000000002C
(1619905138.711472) can0 1E0992D0#000000000000002C
(1619905138.711628) can0 1E09D2D0#000000000000002C
(1619905138.711763) can0 1E0A92D0#000000000000001A
(1619905138.711908) can0 1E0AD2D0#000000000000001A
(1619905138.712053) can0 1E0B12D0#000000000000002A
(1619905138.712198) can0 1E0B52D0#000000000000002A
(1619905138.712344) can0 1E0B92D0#000000000000002A
(1619905138.712490) can0 1E0A12D0#000000000000002A
(1619905138.712637) can0 1E0A52D0#000000000000001A
(1619905138.712775) can0 1E0052D0#446977BF00000021
(1619905138.712923) can0 1E0C12D0#0000000000000000
(1619905138.713069) can0 1E0C52D0#0000000000000030
(1619905138.713215) can0 1E0C92D0#0000000000000030
(1619905138.713357) can0 1E0CD2D0#40A8C09200000000
(1619905138.713504) can0 1E0D12D0#0000000000000000
(1619905138.713648) can0 1E0D52D0#418A85E600000000
(1619905138.713796) can0 1E0DD2D0#4000000000000000
(1619905138.713942) can0 1E0E12D0#3FFFCF6000000000
(1619905138.714089) can0 1E0E52D0#0000000000000000
(1619905138.714237) can0 1E0E92D0#000000000000001F
(1619905138.714384) can0 1E0ED2D0#0000000000000000
(1619905138.714528) can0 1E0D92D0#4163333300000000
(1619905138.714675) can0 1E0F12D0#0000000000000000
(1619905138.714822) can0 1E0F52D0#47FFFF8000000000
(1619905138.714968) can0 1E0F92D0#4268000000000000
(1619905138.715114) can0 1E0FD2D0#0000000000000000
(1619905138.715260) can0 1E1012D0#0000000000000000
(1619905138.715406) can0 1E1052D0#0000000000000000
(1619905138.715553) can0 1E1092D0#0000000000000000
(1619905138.715699) can0 1E10D2D0#0000000000000000
(1619905138.715845) can0 1E1112D0#0000000000000000
(1619905138.715988) can0 1E1152D0#400E771F00000000
(1619905138.716129) can0 1E1192D0#400E771F00000000
(1619905138.716271) can0 1E11D2D0#400E771F00000000
(1619905138.716415) can0 1E1212D0#400E771F00000000
(1619905138.716560) can0 1E1252D0#0000000000000000
(1619905138.716705) can0 1E1292D0#0000000000000000
(1619905138.716851) can0 1E12D2D0#0000000000000000
(1619905138.716996) can0 1E1312D0#0000000000000000
(1619905138.717141) can0 1E1352D0#0000000000000000
(1619905138.717289) can0 1E1392D0#0000000000000000
(1619905138.717436) can0 1E13D2D0#0000000000000000
(1619905138.717582) can0 1E1412D0#0000000000000000
(1619905138.717722) can0 1E1452D0#4014D87700000000
(1619905138.717863) can0 1E1492D0#401491B300000000
(1619905138.718002) can0 1E14D2D0#401491B300000000
(1619905138.718141) can0 1E1512D0#401491B300000000
(1619905138.718287) can0 1E1552D0#0000000000000000
(1619905138.718432) can0 1E1592D0#0000000000000000
(1619905138.718577) can0 1E15D2D0#0000000000000000
(1619905138.718724) can0 1E0BD2D0#000000000000002A
(1619905138.718869) can0 1E1612D0#0000000000000000
(1619905138.719014) can0 1E1652D0#0000000000000000
(1619905138.719160) can0 1E1692D0#0000000000000000
(1619905138.719306) can0 1E16D2D0#0000000000000000
(1619905138.719452) can0 1E1712D0#0000000000000000
(1619905138.719601) can0 1E1752D0#0000000000000000
(1619905138.719746) can0 1E1812D0#0000000000000000
(1619905138.719891) can0 1E1852D0#0000000000000000
(1619905138.720036) can0 1E1892D0#0000000000000000
(1619905138.720182) can0 1E18D2D0#0000000000000000
(1619905138.720328) can0 1E1912D0#0000000000000000
(1619905138.720474) can0 1E1792D0#0000000000000000
(1619905138.720620) can0 1E17D2D0#0000000000000000
(1619905138.720765) can0 1E1952D0#0000000000000000
(1619905138.720910) can0 1E1992D0#0000000000000000
(1619905138.721057) can0 1E19D2D0#0000000000000000
(1619905138.721203) can0 1E1A12D0#0000000000000000
(1619905138.721349) can0 1E1A52D0#0000000000000000
(1619905138.721494) can0 1E1A92D0#0000000000000000
(1619905138.721643) can0 1E1AD2D0#0000000000000000
(1619905138.721786) can0 1E1B52D0#8000000000000000
(1619905138.721933) can0 1E1B92D0#8000000000000000
(1619905138.722078) can0 1E1BD2D0#8000000000000000
(1619905138.722224) can0 1E1C12D0#8000000000000000
(1619905138.722369) can0 1E1C52D0#8000000000000000
(1619905138.722514) can0 1E1B12D0#0000000000000000
(1619905138.722659) can0 1E1C92D0#8000000000000000
(1619905138.722798) can0 1E0052D0#446977BF00000021
(1619905138.722944) can0 1E1D12D0#8000000000000000
(1619905138.723091) can0 1E1D52D0#0000000000000000
(1619905138.723238) can0 1E1D92D0#0000000000000000
(1619905138.723385) can0 1E1DD2D0#0000000000000000
(1619905138.723531) can0 1E1E12D0#0000000000000000
(1619905138.723679) can0 1E1E52D0#0000000000000000
(1619905138.723825) can0 1E1ED2D0#0000000000000000
(1619905138.723971) can0 1E1F12D0#0000000000000000
(1619905138.724117) can0 1E1F52D0#0000000000000000
(1619905138.724260) can0 1E1F92D0#C0E67B6400000000
(1619905138.724401) can0 1E3C92D0#4974240000000000
(1619905138.724547) can0 1E1E92D0#0000000000000000
(1619905138.724693) can0 1E3CD2D0#0000000000000000
(1619905138.724837) can0 1E3D12D0#435B000000000000
(1619905138.724981) can0 1E3D52D0#40A0000000000000
(1619905138.725128) can0 1E3D92D0#0000000000000000
(1619905138.725274) can0 1E3DD2D0#0000000000000000
(1619905138.725421) can0 1E3E12D0#3F80000000000000
(1619905138.725569) can0 1E3E52D0#0000000000000000
(1619905138.725717) can0 1E3E92D0#0000000000000000
(1619905138.725861) can0 1E3ED2D0#4110000000000000
(1619905138.726004) can0 1E3F12D0#4974DF8000000000
(1619905138.726145) can0 1E3F52D0#4974628000000000
(1619905138.726291) can0 1E3F92D0#0000000000000000
(1619905138.726439) can0 1E3FD2D0#0000000000000000
(1619905138.726586) can0 1E4012D0#0000000000000000
(1619905138.726731) can0 1E4052D0#0000000000000000
(1619905138.726877) can0 1E4092D0#0000000000000000
(1619905138.727024) can0 1E40D2D0#0000000000000000
(1619905138.727170) can0 1E4112D0#0000000000000000
(1619905138.727315) can0 1E4152D0#0000000000000000
(1619905138.727462) can0 1E6E12D0#0000000000000000
(1619905138.727608) can0 1E6E52D0#0000000000000000
(1619905138.727754) can0 1E6ED2D0#0000000000000000
(1619905138.727900) can0 1E6F12D0#0000000000000000
(1619905138.728048) can0 1E6F52D0#0000000000000000
(1619905138.728195) can0 1E6F92D0#0000000000000000
(1619905138.728341) can0 1E6FD2D0#0000000000000000
(1619905138.728487) can0 1E6E92D0#0000000000000000
(1619905138.728634) can0 1E7012D0#0000000000000000
(1619905138.728779) can0 1E7052D0#0000000000000000
(1619905138.728925) can0 1E7092D0#0000000000000000
(1619905138.729071) can0 1E70D2D0#0000000000000000
(1619905138.729216) can0 1E7112D0#0000000000000000
(1619905138.729361) can0 1E7152D0#0000000000000000
(1619905138.729506) can0 1E7192D0#0000000000000000
(1619905138.729652) can0 1E71D2D0#0000000000000000
(1619905138.729798) can0 1E7212D0#0000000000000000
(1619905138.729944) can0 1E7252D0#0000000000000000
(1619905138.730089) can0 1E7292D0#0000000000000000
(1619905138.730234) can0 1E72D2D0#0000000000000000
(1619905138.730380) can0 1E7312D0#0000000000000000
(1619905138.730525) can0 1E7352D0#0000000000000000
(1619905138.730673) can0 1E7392D0#0000000000000000
(1619905138.730820) can0 1E73D2D0#0000000000000000
(1619905138.730967) can0 1E7412D0#0000000000000000
(1619905138.731114) can0 1E7452D0#0000000000000000
(1619905138.731261) can0 1E7492D0#0000000000000000
(1619905138.731406) can0 1E74D2D0#0000000000000000
(1619905138.731552) can0 1E7512D0#0000000000000000
(1619905138.731698) can0 1E7552D0#0000000000000000
(1619905138.731843) can0 1E7592D0#0000000000000000
(1619905138.731989) can0 1E75D2D0#0000000000000000
(1619905138.732134) can0 1E7612D0#0000000000000000
(1619905138.732279) can0 1E7652D0#0000000000000000
(1619905138.732424) can0 1E7692D0#0000000000000000
(1619905138.732569) can0 1E76D2D0#0000000000000000
(1619905138.732716) can0 1E7712D0#0000000000000000
(1619905138.732855) can0 1E0052D0#4469911800000021
(1619905138.733002) can0 1E7752D0#0000000000000000
(1619905138.733147) can0 1E1CD2D0#8000000000000000
(1619905138.733289) can0 1E0252D0#42C83C2F00000000
(1619905138.733433) can0 1E0292D0#42C8000000000000
(1619905138.733590) can0 1E02D2D0#0000000000000000
(1619905138.733723) can0 1E0312D0#42C8000000000000
(1619905138.734734) can0 1E0012D0#00000179285FFEFD
(1619905138.734873) can0 1E0052D0#4469911800000021
(1619905138.735014) can0 1E0092D0#40141BA600000000
(1619905138.735156) can0 1E00D2D0#4030B29100000000
(1619905138.735298) can0 1E0112D0#4148FCCA00000000
(1619905138.735438) can0 1E0152D0#4163333300000000
(1619905138.735578) can0 1E0192D0#416273C800000004
(1619905138.735720) can0 1E01D2D0#4162E06200000000
(1619905138.735862) can0 1E0352D0#4261E47A00000000
(1619905138.736007) can0 1E0392D0#3F80000000000027
(1619905138.736153) can0 1E03D2D0#3F80000000000029
(1619905138.736300) can0 1E0412D0#000000000000000C
(1619905138.736441) can0 1E0452D0#410CCE1100000000
(1619905138.736588) can0 1E0492D0#0000000000000000
(1619905138.736739) can0 1E0212D0#4162E06200000000
(1619905138.736877) can0 1E04D2D0#0000000000000000
(1619905138.737024) can0 1E0512D0#0000000000000000
(1619905138.737165) can0 1E0552D0#4282C09100000000
(1619905138.737305) can0 1E0592D0#417170D400000000
(1619905138.737451) can0 1E05D2D0#0000000000000000
(1619905138.737598) can0 1E0612D0#0000000000000000
(1619905138.737739) can0 1E0712D0#42114D4000000000
(1619905138.737887) can0 1E0752D0#0000000000000000
(1619905138.738030) can0 1E0792D0#42FB08F800000000
(1619905138.738172) can0 1E07D2D0#432066B700000000
(1619905138.738312) can0 1E0812D0#42ACBA4A00000000
(1619905138.738453) can0 1E0692D0#41A568DE00000000
(1619905138.738592) can0 1E06D2D0#445A6A3100000000
(1619905138.738733) can0 1E0852D0#415C76DF00000000
(1619905138.738874) can0 1E0892D0#C14545B000000013
(1619905138.739020) can0 1E08D2D0#422DCB7300000017
(1619905138.739159) can0 1E0912D0#0000000000000000
(1619905138.739304) can0 1E0952D0#000000000000002C
(1619905138.739449) can0 1E0992D0#000000000000002C
(1619905138.739594) can0 1E09D2D0#000000000000002C
(1619905138.739739) can0 1E0A92D0#000000000000001A
(1619905138.739885) can0 1E0AD2D0#000000000000001A
(1619905138.740030) can0 1E0B12D0#000000000000002A
(1619905138.740175) can0 1E0B52D0#000000000000002A
(1619905138.740321) can0 1E0B92D0#000000000000002A
(1619905138.740467) can0 1E0A12D0#000000000000002A
(1619905138.740612) can0 1E0A52D0#000000000000001A
(1619905138.740760) can0 1E0C12D0#0000000000000000
(1619905138.740907) can0 1E0C52D0#0000000000000030
(1619905138.741053) can0 1E0C92D0#0000000000000030
(1619905138.741196) can0 1E0CD2D0#40A6795900000000
(1619905138.741352) can0 1E0D12D0#0000000000000000
(1619905138.741486) can0 1E0D52D0#418A085500000000
(1619905138.741637) can0 1E0D92D0#4163333300000000
(1619905138.741778) can0 1E0DD2D0#4000000000000000
(1619905138.741924) can0 1E0E12D0#400031E400000000
(1619905138.742071) can0 1E0E52D0#0000000000000000
(1619905138.742219) can0 1E0E92D0#000000000000001F
(1619905138.742366) can0 1E0ED2D0#0000000000000000
(1619905138.742513) can0 1E0F12D0#0000000000000000
(1619905138.742660) can0 1E0F52D0#47FFFF8000000000
(1619905138.742799) can0 1E0052D0#4469B5EA00000021
(1619905138.742944) can0 1E0F92D0#4268000000000000
(1619905138.743091) can0 1E0FD2D0#0000000000000000
(1619905138.743237) can0 1E1012D0#0000000000000000
(1619905138.743383) can0 1E1052D0#0000000000000000
(1619905138.743529) can0 1E1092D0#0000000000000000
(1619905138.743677) can0 1E10D2D0#0000000000000000
(1619905138.743818) can0 1E1152D0#400CFE6600000000
(1619905138.743960) can0 1E1192D0#400CFE6600000000
(1619905138.744102) can0 1E11D2D0#400CFE6600000000
(1619905138.744243) can0 1E1212D0#400CFE6600000000
(1619905138.744388) can0 1E1252D0#0000000000000000
(1619905138.744535) can0 1E1112D0#0000000000000000
(1619905138.744680) can0 1E1292D0#0000000000000000
(1619905138.744826) can0 1E12D2D0#0000000000000000
(1619905138.744971) can0 1E1312D0#0000000000000000
(1619905138.745116) can0 1E1352D0#0000000000000000
(1619905138.745263) can0 1E1392D0#0000000000000000
(1619905138.745410) can0 1E13D2D0#0000000000000000
(1619905138.745557) can0 1E1412D0#0000000000000000
(1619905138.745697) can0 1E1452D0#4013BEF400000000
(1619905138.745837) can0 1E1492D0#401397F100000000
(1619905138.745979) can0 1E14D2D0#401397F100000000
(1619905138.746118) can0 1E1512D0#401397F100000000
(1619905138.746263) can0 1E1552D0#0000000000000000
(1619905138.746409) can0 1E1592D0#0000000000000000
(1619905138.746554) can0 1E15D2D0#0000000000000000
(1619905138.746699) can0 1E1612D0#0000000000000000
(1619905138.746844) can0 1E1652D0#0000000000000000
(1619905138.746990) can0 1E1692D0#0000000000000000
(1619905138.747135) can0 1E16D2D0#0000000000000000
(1619905138.747281) can0 1E1712D0#0000000000000000
(1619905138.747430) can0 1E1752D0#0000000000000000
(1619905138.747576) can0 1E1792D0#0000000000000000
(1619905138.747722) can0 1E1812D0#0000000000000000
(1619905138.747867) can0 1E1852D0#0000000000000000
(1619905138.748012) can0 1E1892D0#0000000000000000
(1619905138.748157) can0 1E18D2D0#0000000000000000
(1619905138.748304) can0 1E1912D0#0000000000000000
(1619905138.748450) can0 1E17D2D0#0000000000000000
(1619905138.748595) can0 1E1952D0#0000000000000000
(1619905138.748742) can0 1E0BD2D0#000000000000002A
(1619905138.748887) can0 1E1992D0#0000000000000000
(1619905138.749033) can0 1E19D2D0#0000000000000000
(1619905138.749180) can0 1E1A12D0#0000000000000000
(1619905138.749326) can0 1E1A52D0#0000000000000000
(1619905138.749471) can0 1E1A92D0#0000000000000000
(1619905138.749618) can0 1E1AD2D0#0000000000000000
(1619905138.749763) can0 1E1B52D0#8000000000000000
(1619905138.749909) can0 1E1B92D0#8000000000000000
(1619905138.750054) can0 1E1BD2D0#8000000000000000
(1619905138.750200) can0 1E1C12D0#8000000000000000
(1619905138.750346) can0 1E1C52D0#8000000000000000
(1619905138.750491) can0 1E1B12D0#0000000000000000
(1619905138.750637) can0 1E1C92D0#8000000000000000
(1619905138.750782) can0 1E1D12D0#8000000000000000
(1619905138.750929) can0 1E1D52D0#0000000000000000
(1619905138.751075) can0 1E1D92D0#0000000000000000
(1619905138.751223) can0 1E1DD2D0#0000000000000000
(1619905138.751369) can0 1E1E12D0#0000000000000000
(1619905138.751517) can0 1E1E52D0#0000000000000000
(1619905138.751664) can0 1E1E92D0#0000000000000000
(1619905138.751809) can0 1E1ED2D0#0000000000000000
(1619905138.751955) can0 1E1F12D0#0000000000000000
(1619905138.752101) can0 1E1F52D0#0000000000000000
(1619905138.752242) can0 1E1F92D0#C0E8A81300000000
(1619905138.752385) can0 1E3C92D0#4974240000000000
(1619905138.752531) can0 1E3CD2D0#0000000000000000
(1619905138.752674) can0 1E3D12D0#435B000000000000
(1619905138.752812) can0 1E0052D0#4469B5EA00000021
(1619905138.752958) can0 1E3D52D0#40A0000000000000
(1619905138.753103) can0 1E3D92D0#0000000000000000
(1619905138.753250) can0 1E3DD2D0#0000000000000000
(1619905138.753397) can0 1E3E12D0#3F80000000000000
(1619905138.753545) can0 1E3E52D0#0000000000000000
(1619905138.753693) can0 1E3E92D0#0000000000000000
(1619905138.753835) can0 1E3F12D0#4974DF8000000000
(1619905138.753976) can0 1E3F52D0#4974628000000000
(1619905138.754122) can0 1E3F92D0#0000000000000000
(1619905138.754271) can0 1E3FD2D0#0000000000000000
(1619905138.754417) can0 1E4012D0#0000000000000000
(1619905138.754561) can0 1E3ED2D0#4110000000000000
(1619905138.754707) can0 1E4052D0#0000000000000000
(1619905138.754853) can0 1E4092D0#0000000000000000
(1619905138.754999) can0 1E40D2D0#0000000000000000
(1619905138.755145) can0 1E4112D0#0000000000000000
(1619905138.755292) can0 1E4152D0#0000000000000000
(1619905138.755438) can0 1E6E12D0#0000000000000000
(1619905138.755584) can0 1E6E52D0#0000000000000000
(1619905138.755730) can0 1E6ED2D0#0000000000000000
(1619905138.755876) can0 1E6F12D0#0000000000000000
(1619905138.756023) can0 1E6F52D0#0000000000000000
(1619905138.756171) can0 1E6F92D0#0000000000000000
(1619905138.756317) can0 1E6FD2D0#0000000000000000
(1619905138.756463) can0 1E6E92D0#0000000000000000
(1619905138.756610) can0 1E7012D0#0000000000000000
(1619905138.756755) can0 1E7052D0#0000000000000000
(1619905138.756900) can0 1E7092D0#0000000000000000
(1619905138.757046) can0 1E70D2D0#0000000000000000
(1619905138.757192) can0 1E7112D0#0000000000000000
(1619905138.757337) can0 1E7152D0#0000000000000000
(1619905138.757482) can0 1E7192D0#0000000000000000
(1619905138.757629) can0 1E71D2D0#0000000000000000
(1619905138.757774) can0 1E7212D0#0000000000000000
(1619905138.757919) can0 1E7252D0#0000000000000000
(1619905138.758064) can0 1E7292D0#0000000000000000
(1619905138.758210) can0 1E72D2D0#0000000000000000
(1619905138.758356) can0 1E7312D0#0000000000000000
(1619905138.758501) can0 1E7352D0#0000000000000000
(1619905138.758648) can0 1E7392D0#0000000000000000
(1619905138.758796) can0 1E73D2D0#0000000000000000
(1619905138.758942) can0 1E7412D0#0000000000000000
(1619905138.759090) can0 1E7452D0#0000000000000000
(1619905138.759236) can0 1E7492D0#0000000000000000
(1619905138.759382) can0 1E74D2D0#0000000000000000
(1619905138.759528) can0 1E7512D0#0000000000000000
(1619905138.759673) can0 1E7552D0#0000000000000000
(1619905138.759818) can0 1E7592D0#0000000000000000
(1619905138.759965) can0 1E75D2D0#0000000000000000
(1619905138.760110) can0 1E7612D0#0000000000000000
(1619905138.760255) can0 1E7652D0#0000000000000000
(1619905138.760400) can0 1E7692D0#0000000000000000
(1619905138.760545) can0 1E76D2D0#0000000000000000
(1619905138.760691) can0 1E7712D0#0000000000000000
(1619905138.760838) can0 1E7752D0#0000000000000000
(1619905138.760984) can0 1E1CD2D0#8000000000000000
(1619905138.761126) can0 1E0252D0#42C83C6400000000
(1619905138.761270) can0 1E0292D0#42C8000000000000
(1619905138.761417) can0 1E02D2D0#0000000000000000
(1619905138.761560) can0 1E0312D0#42C8000000000000
(1619905138.762715) can0 1E0052D0#44692DBC00000021
(1619905138.762856) can0 1E0012D0#00000179285FFF19
(1619905138.762994) can0 1E0052D0#44692DBC00000021
(1619905138.763134) can0 1E0092D0#4013A2F300000000
(1619905138.763276) can0 1E00D2D0#402FBAD100000000
(1619905138.763417) can0 1E0112D0#4147A56B00000000
(1619905138.763557) can0 1E0152D0#4163333300000000
(1619905138.763697) can0 1E0192D0#4161CA1600000004
(1619905138.763838) can0 1E0352D0#4261F5BD00000000
(1619905138.763984) can0 1E0392D0#3F80000000000027
(1619905138.764129) can0 1E03D2D0#3F80000000000029
(1619905138.764276) can0 1E0412D0#000000000000000C
(1619905138.764420) can0 1E0452D0#410BFC7F00000000
(1619905138.764562) can0 1E01D2D0#4161CA1600000000
(1619905138.764702) can0 1E0212D0#4161CA1600000000
(1619905138.764849) can0 1E0492D0#0000000000000000
(1619905138.764996) can0 1E04D2D0#0000000000000000
(1619905138.765142) can0 1E0512D0#0000000000000000
(1619905138.765284) can0 1E0552D0#4282027800000000
(1619905138.765426) can0 1E0592D0#4172B7FB00000000
(1619905138.765574) can0 1E05D2D0#0000000000000000
(1619905138.765712) can0 1E06D2D0#445A68ED00000000
(1619905138.765852) can0 1E0712D0#4210BA9200000000
(1619905138.765999) can0 1E0752D0#0000000000000000
(1619905138.766141) can0 1E0792D0#42FAFBA600000000
(1619905138.766284) can0 1E07D2D0#432067DA00000000
(1619905138.766431) can0 1E0612D0#0000000000000000
(1619905138.766573) can0 1E0692D0#41A63AF400000000
(1619905138.766715) can0 1E0812D0#42ACBB5F00000000
(1619905138.766855) can0 1E0852D0#415C8F1200000000
(1619905138.766995) can0 1E0892D0#C14571C400000013
(1619905138.767134) can0 1E08D2D0#422D879200000017
(1619905138.767282) can0 1E0912D0#0000000000000000
(1619905138.767427) can0 1E0952D0#000000000000002C
(1619905138.767572) can0 1E0992D0#000000000000002C
(1619905138.767717) can0 1E0A52D0#000000000000001A
(1619905138.767863) can0 1E0A92D0#000000000000001A
(1619905138.768007) can0 1E0AD2D0#000000000000001A
(1619905138.768152) can0 1E0B12D0#000000000000002A
(1619905138.768298) can0 1E0B52D0#000000000000002A
(1619905138.768443) can0 1E09D2D0#000000000000002C
(1619905138.768589) can0 1E0A12D0#000000000000002A
(1619905138.768735) can0 1E0B92D0#000000000000002A
(1619905138.768882) can0 1E0BD2D0#000000000000002A
(1619905138.769030) can0 1E0C12D0#0000000000000000
(1619905138.769177) can0 1E0C52D0#0000000000000030
(1619905138.769323) can0 1E0C92D0#0000000000000030
(1619905138.769465) can0 1E0CD2D0#40A457FB00000000
(1619905138.769612) can0 1E0D12D0#0000000000000000
(1619905138.769755) can0 1E0D92D0#4163333300000000
(1619905138.769903) can0 1E0DD2D0#4000000000000000
(1619905138.770047) can0 1E0E12D0#400023D300000000
(1619905138.770195) can0 1E0E52D0#0000000000000000
(1619905138.770343) can0 1E0E92D0#000000000000001F
(1619905138.770484) can0 1E0D52D0#4189ABAB00000000
(1619905138.770631) can0 1E0ED2D0#0000000000000000
(1619905138.770778) can0 1E0F52D0#47FFFF8000000000
(1619905138.770923) can0 1E0F92D0#4268000000000000
(1619905138.771071) can0 1E0FD2D0#0000000000000000
(1619905138.771217) can0 1E1012D0#0000000000000000
(1619905138.771363) can0 1E1052D0#0000000000000000
(1619905138.771509) can0 1E1092D0#0000000000000000
(1619905138.771657) can0 1E10D2D0#0000000000000000
(1619905138.771801) can0 1E1112D0#0000000000000000
(1619905138.771941) can0 1E1152D0#400AEAC600000000
(1619905138.772083) can0 1E1192D0#400AEAC600000000
(1619905138.772225) can0 1E11D2D0#400AEAC600000000
(1619905138.772367) can0 1E1212D0#400AEAC600000000
(1619905138.772513) can0 1E1252D0#0000000000000000
(1619905138.772657) can0 1E1292D0#0000000000000000
(1619905138.772795) can0 1E0052D0#44692DBC00000021
(1619905138.772942) can0 1E12D2D0#0000000000000000
(1619905138.773087) can0 1E1312D0#0000000000000000
(1619905138.773232) can0 1E1352D0#0000000000000000
(1619905138.773379) can0 1E1392D0#0000000000000000
(1619905138.773526) can0 1E13D2D0#0000000000000000
(1619905138.773672) can0 1E1412D0#0000000000000000
(1619905138.773814) can0 1E1492D0#40120E8200000000
(1619905138.773958) can0 1E14D2D0#40120E8200000000
(1619905138.774099) can0 1E1512D0#40120E8200000000
(1619905138.774244) can0 1E1552D0#0000000000000000
(1619905138.774389) can0 1E1592D0#0000000000000000
(1619905138.774529) can0 1E1452D0#40124BDB00000000
(1619905138.774674) can0 1E15D2D0#0000000000000000
(1619905138.774820) can0 1E1612D0#0000000000000000
(1619905138.774965) can0 1E1652D0#0000000000000000
(1619905138.775111) can0 1E1692D0#0000000000000000
(1619905138.775256) can0 1E16D2D0#0000000000000000
(1619905138.775402) can0 1E1712D0#0000000000000000
(1619905138.775550) can0 1E1752D0#0000000000000000
(1619905138.775696) can0 1E1792D0#0000000000000000
(1619905138.775842) can0 1E17D2D0#0000000000000000
